<Qucs Dataset 1.0.0>
<indep frequency 100>
1.000000000000e+00
1.232846739442e+00
1.519911082953e+00
1.873817422860e+00
2.310129700083e+00
2.848035868436e+00
3.511191734215e+00
4.328761281083e+00
5.336699231206e+00
6.579332246576e+00
8.111308307897e+00
1.000000000000e+01
1.232846739442e+01
1.519911082953e+01
1.873817422860e+01
2.310129700083e+01
2.848035868436e+01
3.511191734215e+01
4.328761281083e+01
5.336699231206e+01
6.579332246576e+01
8.111308307897e+01
1.000000000000e+02
1.232846739442e+02
1.519911082953e+02
1.873817422860e+02
2.310129700083e+02
2.848035868436e+02
3.511191734215e+02
4.328761281083e+02
5.336699231206e+02
6.579332246576e+02
8.111308307897e+02
1.000000000000e+03
1.232846739442e+03
1.519911082953e+03
1.873817422860e+03
2.310129700083e+03
2.848035868436e+03
3.511191734215e+03
4.328761281083e+03
5.336699231206e+03
6.579332246576e+03
8.111308307897e+03
1.000000000000e+04
1.232846739442e+04
1.519911082953e+04
1.873817422860e+04
2.310129700083e+04
2.848035868436e+04
3.511191734215e+04
4.328761281083e+04
5.336699231206e+04
6.579332246576e+04
8.111308307897e+04
1.000000000000e+05
1.232846739442e+05
1.519911082953e+05
1.873817422860e+05
2.310129700083e+05
2.848035868436e+05
3.511191734215e+05
4.328761281083e+05
5.336699231206e+05
6.579332246576e+05
8.111308307897e+05
1.000000000000e+06
1.232846739442e+06
1.519911082953e+06
1.873817422860e+06
2.310129700083e+06
2.848035868436e+06
3.511191734215e+06
4.328761281083e+06
5.336699231206e+06
6.579332246576e+06
8.111308307897e+06
1.000000000000e+07
1.232846739442e+07
1.519911082953e+07
1.873817422860e+07
2.310129700083e+07
2.848035868436e+07
3.511191734215e+07
4.328761281083e+07
5.336699231206e+07
6.579332246576e+07
8.111308307897e+07
1.000000000000e+08
1.232846739442e+08
1.519911082953e+08
1.873817422860e+08
2.310129700083e+08
2.848035868436e+08
3.511191734215e+08
4.328761281083e+08
5.336699231206e+08
6.579332246576e+08
8.111308307897e+08
1.000000000000e+09
</indep>
<dep ac.v(vin) frequency>
1.000000000000e+00+j0.000000000000e+00
1.000000000000e+00+j0.000000000000e+00
1.000000000000e+00+j0.000000000000e+00
1.000000000000e+00+j0.000000000000e+00
1.000000000000e+00+j0.000000000000e+00
1.000000000000e+00+j0.000000000000e+00
1.000000000000e+00+j0.000000000000e+00
1.000000000000e+00+j0.000000000000e+00
1.000000000000e+00+j0.000000000000e+00
1.000000000000e+00+j0.000000000000e+00
1.000000000000e+00+j0.000000000000e+00
1.000000000000e+00+j0.000000000000e+00
1.000000000000e+00+j0.000000000000e+00
1.000000000000e+00+j0.000000000000e+00
1.000000000000e+00+j0.000000000000e+00
1.000000000000e+00+j0.000000000000e+00
1.000000000000e+00+j0.000000000000e+00
1.000000000000e+00+j0.000000000000e+00
1.000000000000e+00+j0.000000000000e+00
1.000000000000e+00+j0.000000000000e+00
1.000000000000e+00+j0.000000000000e+00
1.000000000000e+00+j0.000000000000e+00
1.000000000000e+00+j0.000000000000e+00
1.000000000000e+00+j0.000000000000e+00
1.000000000000e+00+j0.000000000000e+00
1.000000000000e+00+j0.000000000000e+00
1.000000000000e+00+j0.000000000000e+00
1.000000000000e+00+j0.000000000000e+00
1.000000000000e+00+j0.000000000000e+00
1.000000000000e+00+j0.000000000000e+00
1.000000000000e+00+j0.000000000000e+00
1.000000000000e+00+j0.000000000000e+00
1.000000000000e+00+j0.000000000000e+00
1.000000000000e+00+j0.000000000000e+00
1.000000000000e+00+j0.000000000000e+00
1.000000000000e+00+j0.000000000000e+00
1.000000000000e+00+j0.000000000000e+00
1.000000000000e+00+j0.000000000000e+00
1.000000000000e+00+j0.000000000000e+00
1.000000000000e+00+j0.000000000000e+00
1.000000000000e+00+j0.000000000000e+00
1.000000000000e+00+j0.000000000000e+00
1.000000000000e+00+j0.000000000000e+00
1.000000000000e+00+j0.000000000000e+00
1.000000000000e+00+j0.000000000000e+00
1.000000000000e+00+j0.000000000000e+00
1.000000000000e+00+j0.000000000000e+00
1.000000000000e+00+j0.000000000000e+00
1.000000000000e+00+j0.000000000000e+00
1.000000000000e+00+j0.000000000000e+00
1.000000000000e+00+j0.000000000000e+00
1.000000000000e+00+j0.000000000000e+00
1.000000000000e+00+j0.000000000000e+00
1.000000000000e+00+j0.000000000000e+00
1.000000000000e+00+j0.000000000000e+00
1.000000000000e+00+j0.000000000000e+00
1.000000000000e+00+j0.000000000000e+00
1.000000000000e+00+j0.000000000000e+00
1.000000000000e+00+j0.000000000000e+00
1.000000000000e+00+j0.000000000000e+00
1.000000000000e+00+j0.000000000000e+00
1.000000000000e+00+j0.000000000000e+00
1.000000000000e+00+j0.000000000000e+00
1.000000000000e+00+j0.000000000000e+00
1.000000000000e+00+j0.000000000000e+00
1.000000000000e+00+j0.000000000000e+00
1.000000000000e+00+j0.000000000000e+00
1.000000000000e+00+j0.000000000000e+00
1.000000000000e+00+j0.000000000000e+00
1.000000000000e+00+j0.000000000000e+00
1.000000000000e+00+j0.000000000000e+00
1.000000000000e+00+j0.000000000000e+00
1.000000000000e+00+j0.000000000000e+00
1.000000000000e+00+j0.000000000000e+00
1.000000000000e+00+j0.000000000000e+00
1.000000000000e+00+j0.000000000000e+00
1.000000000000e+00+j0.000000000000e+00
1.000000000000e+00+j0.000000000000e+00
1.000000000000e+00+j0.000000000000e+00
1.000000000000e+00+j0.000000000000e+00
1.000000000000e+00+j0.000000000000e+00
1.000000000000e+00+j0.000000000000e+00
1.000000000000e+00+j0.000000000000e+00
1.000000000000e+00+j0.000000000000e+00
1.000000000000e+00+j0.000000000000e+00
1.000000000000e+00+j0.000000000000e+00
1.000000000000e+00+j0.000000000000e+00
1.000000000000e+00+j0.000000000000e+00
1.000000000000e+00+j0.000000000000e+00
1.000000000000e+00+j0.000000000000e+00
1.000000000000e+00+j0.000000000000e+00
1.000000000000e+00+j0.000000000000e+00
1.000000000000e+00+j0.000000000000e+00
1.000000000000e+00+j0.000000000000e+00
1.000000000000e+00+j0.000000000000e+00
1.000000000000e+00+j0.000000000000e+00
1.000000000000e+00+j0.000000000000e+00
1.000000000000e+00+j0.000000000000e+00
1.000000000000e+00+j0.000000000000e+00
1.000000000000e+00+j0.000000000000e+00
</dep>
<dep ac.i(pr1) frequency>
8.162929723536e-07+j1.181219611958e-05
1.237634540085e-06+j1.452673116398e-05
1.874073344151e-06+j1.784238625911e-05
2.832356864439e-06+j2.187284032656e-05
4.268334624291e-06+j2.673661984775e-05
6.404735588957e-06+j3.254168500317e-05
9.549485329971e-06+j3.935587075798e-05
1.410658601986e-05+j4.715655987597e-05
2.056268758586e-05+j5.575586553829e-05
2.942207077995e-05+j6.471041639547e-05
4.106181995739e-05+j7.325362083284e-05
5.551046263186e-05+j8.032582406509e-05
7.223320800987e-05+j8.478244247092e-05
9.008936898838e-05+j8.576894806764e-05
1.075876519257e-04+j8.308157528938e-05
1.233509130899e-04+j7.726231853308e-05
1.365101394552e-04+j6.935364313840e-05
1.468149512331e-04+j6.049889798573e-05
1.544876969177e-04+j5.163384603643e-05
1.599888259804e-04+j4.336899111887e-05
1.638270019445e-04+j3.601658183926e-05
1.664543116821e-04+j2.967606641159e-05
1.682293489496e-04+j2.431963443283e-05
1.694179863033e-04+j1.985556770817e-05
1.702092156127e-04+j1.616802660268e-05
1.707338065519e-04+j1.313915599148e-05
1.710806762909e-04+j1.065989642737e-05
1.713095971948e-04+j8.634277451271e-06
1.714604458626e-04+j6.980250856458e-06
1.715596863790e-04+j5.628852873440e-06
1.716248102686e-04+j4.522676210079e-06
1.716673310060e-04+j3.614158159659e-06
1.716947810610e-04+j2.863926506395e-06
1.717120295952e-04+j2.239303782313e-06
1.717221390199e-04+j1.712998387978e-06
1.717269058149e-04+j1.261976623669e-06
1.717271789638e-04+j8.664952297083e-07
1.717230118538e-04+j5.092703075171e-07
1.717136753219e-04+j1.747610604680e-07
1.716975367659e-04-j1.514456731484e-07
1.716717902147e-04-j4.831505513700e-07
1.716320040427e-04-j8.339338559159e-07
1.715714389602e-04-j1.217362864710e-06
1.714800881638e-04-j1.646888291149e-06
1.713434270632e-04-j2.135203982421e-06
1.711409797595e-04-j2.692709876959e-06
1.708450956643e-04-j3.324592271011e-06
1.704208792613e-04-j4.026071150459e-06
1.698290163617e-04-j4.775919140749e-06
1.690338303010e-04-j5.529963094828e-06
1.680179180803e-04-j6.219063784984e-06
1.668002936946e-04-j6.758242641448e-06
1.654477692638e-04-j7.070581595088e-06
1.640665843577e-04-j7.118298337287e-06
1.627720593208e-04-j6.922070750601e-06
1.616526028245e-04-j6.554128954423e-06
1.607497858336e-04-j6.110734845162e-06
1.600614601766e-04-j5.683472395192e-06
1.595582788776e-04-j5.343459618445e-06
1.592007835216e-04-j5.139445466760e-06
1.589505650466e-04-j5.103641628245e-06
1.587751968206e-04-j5.259466733300e-06
1.586490923281e-04-j5.628285057410e-06
1.585523658900e-04-j6.234462601135e-06
1.584689529037e-04-j7.109068063634e-06
1.583845286574e-04-j8.292779230061e-06
1.582843190583e-04-j9.838480659705e-06
1.581506456694e-04-j1.181389364771e-05
1.579598863079e-04-j1.430444068462e-05
1.576783851692e-04-j1.741641270698e-05
1.572566661380e-04-j2.128034069805e-05
1.566210650966e-04-j2.605420839551e-05
1.556616047547e-04-j3.192567629876e-05
1.542146501270e-04-j3.911165636423e-05
1.520388011054e-04-j4.785214455734e-05
1.487830914177e-04-j5.839290374060e-05
1.439489254555e-04-j7.094826298974e-05
1.368532240324e-04-j8.563161362814e-05
1.266126283242e-04-j1.023400693112e-04
1.121885769771e-04-j1.205889029276e-04
9.255337780305e-05-j1.393243128553e-04
6.702976753761e-05-j1.568098743031e-04
3.577021522521e-05-j1.707559595430e-04
1.601988212588e-07-j1.788389584837e-04
-3.721263816904e-05-j1.795186491683e-04
-7.321641134125e-05-j1.727119725413e-04
-1.051665727373e-04-j1.598339383700e-04
-1.315453843582e-04-j1.431721478713e-04
-1.520999772152e-04-j1.250546733124e-04
-1.674671676727e-04-j1.072816028106e-04
-1.786826121538e-04-j9.095195575994e-05
-1.868110473607e-04-j7.655677773624e-05
-1.927489649671e-04-j6.416905110820e-05
-1.971585568302e-04-j5.362975433257e-05
-2.004815405163e-04-j4.469220052649e-05
-2.029948397817e-04-j3.711372795752e-05
-2.048767961702e-04-j3.069495214538e-05
-2.062584228653e-04-j2.528003301640e-05
-2.072493783877e-04-j2.074072655014e-05
-2.079446805026e-04-j1.696245092538e-05
</dep>
<dep ac.i(pr4) frequency>
-4.314085656785e-06-j6.242842078157e-05
-6.540864124307e-06-j7.677496402219e-05
-9.904425503888e-06-j9.429848010674e-05
-1.496892725818e-05-j1.155997752960e-04
-2.255802978418e-05-j1.413052788708e-04
-3.384884947002e-05-j1.719855821919e-04
-5.046876440007e-05-j2.079992217517e-04
-7.455291482604e-05-j2.492267037991e-04
-1.086732320911e-04-j2.946750982209e-04
-1.554948259696e-04-j3.420012570976e-04
-2.170105768404e-04-j3.871538357532e-04
-2.933712519081e-04-j4.245326752673e-04
-3.817504968524e-04-j4.480887904719e-04
-4.761198122948e-04-j4.533061571834e-04
-5.685977531671e-04-j4.391080433071e-04
-6.519061536593e-04-j4.083590754035e-04
-7.214523048449e-04-j3.665689018945e-04
-7.759129576112e-04-j3.197803956813e-04
-8.164632192291e-04-j2.729394150872e-04
-8.455365548758e-04-j2.292729207826e-04
-8.658212409683e-04-j1.904317111457e-04
-8.797065499057e-04-j1.569420738633e-04
-8.890876486185e-04-j1.286579029001e-04
-8.953696797127e-04-j1.050955441437e-04
-8.995514805444e-04-j8.564411236982e-05
-9.023241964936e-04-j6.968237874939e-05
-9.041577998882e-04-j5.663597925395e-05
-9.053682582978e-04-j4.600019298896e-05
-9.061664282957e-04-j3.734445471286e-05
-9.066923387919e-04-j3.030806082478e-05
-9.070386857351e-04-j2.459225866145e-05
-9.072667030779e-04-j1.995140117552e-05
-9.074167855417e-04-j1.618445250823e-05
-9.075155564736e-04-j1.312738507094e-05
-9.075805522838e-04-j1.064662894351e-05
-9.076233193596e-04-j8.633552346078e-06
-9.076514580632e-04-j6.999873762787e-06
-9.076699703157e-04-j5.673880758008e-06
-9.076821473866e-04-j4.597330301182e-06
-9.076901544632e-04-j3.722916263612e-06
-9.076954153937e-04-j3.012204465488e-06
-9.076988657869e-04-j2.433950751773e-06
-9.077011193905e-04-j1.962731513548e-06
-9.077025773236e-04-j1.577828276413e-06
-9.077034996391e-04-j1.262318356552e-06
-9.077040520854e-04-j1.002332252251e-06
-9.077043366698e-04-j7.864455728414e-07
-9.077044119803e-04-j6.051790534895e-07
-9.077043076687e-04-j4.505846041635e-07
-9.077040364964e-04-j3.158983318649e-07
-9.077036060448e-04-j1.952431475255e-07
-9.077030296209e-04-j8.336485105050e-08
-9.077023322242e-04+j2.461135437695e-08
-9.077015458784e-04+j1.334107280153e-07
-9.077006931689e-04+j2.478262046189e-07
-9.076997658330e-04+j3.729255940767e-07
-9.076987072500e-04+j5.142605179593e-07
-9.076974004493e-04+j6.780955104031e-07
-9.076956549186e-04+j8.716741838459e-07
-9.076931827709e-04+j1.103534742346e-06
-9.076895557495e-04+j1.383885672348e-06
-9.076841344139e-04+j1.725054800968e-06
-9.076759575277e-04+j2.142028890606e-06
-9.076635729377e-04+j2.653104981329e-06
-9.076447807421e-04+j3.280678268743e-06
-9.076162439700e-04+j4.052194046442e-06
-9.075728989054e-04+j5.001292097859e-06
-9.075070629731e-04+j6.169168499621e-06
-9.074070877638e-04+j7.606167286450e-06
-9.072553318888e-04+j9.373583789921e-06
-9.070251257856e-04+j1.154559571235e-05
-9.066762632470e-04+j1.421110698872e-05
-9.061483873200e-04+j1.747504041950e-05
-9.053514760918e-04+j2.145816132439e-05
-9.041525853049e-04+j2.629372713474e-05
-9.023583400538e-04+j3.211798288009e-05
-8.996939681455e-04+j3.904968941809e-05
-8.957829955955e-04+j4.715183972652e-05
-8.901385468591e-04+j5.636810497607e-05
-8.821881970766e-04+j6.643159304047e-05
-8.713655162759e-04+j7.676165850043e-05
-8.572972408605e-04+j8.640132507351e-05
-8.400674733464e-04+j9.408863069124e-05
-8.204399785368e-04+j9.854283024158e-05
-7.998411960093e-04+j9.891493981728e-05
-7.799976092370e-04+j9.515913537653e-05
-7.623892090409e-04+j8.805532286651e-05
-7.478529415295e-04+j7.886441342275e-05
-7.365286713021e-04+j6.886972096812e-05
-7.280659673668e-04+j5.906372179163e-05
-7.218945802279e-04+j5.005275978346e-05
-7.174280802291e-04+j4.210844530258e-05
-7.141723569097e-04+j3.527229982953e-05
-7.117617685904e-04+j2.945806303577e-05
-7.099514697307e-04+j2.453080061623e-05
-7.085870290841e-04+j2.035700910233e-05
-7.075684958476e-04+j1.682614004182e-05
-7.068226215117e-04+j1.385104771839e-05
-7.062886713707e-04+j1.135968174813e-05
-7.059145445038e-04+j9.287771630546e-06
</dep>
<dep ac.i(pr5) frequency>
8.192212744868e-07+j1.185457674064e-05
1.242074328233e-06+j1.457885120301e-05
1.880796240412e-06+j1.790640247827e-05
2.842517428023e-06+j2.195131737273e-05
4.283646496144e-06+j2.683254766145e-05
6.427711409559e-06+j3.265844093753e-05
9.583742366621e-06+j3.949707566599e-05
1.415719082396e-05+j4.732575366562e-05
2.063645247667e-05+j5.595591434243e-05
2.952761709193e-05+j6.494259612221e-05
4.120912174642e-05+j7.351645773917e-05
5.570959629109e-05+j8.061404352921e-05
7.249233146819e-05+j8.508666442788e-05
9.041254816796e-05+j8.607672765716e-05
1.079736030051e-04+j8.337973750277e-05
1.237934119960e-04+j7.753963368287e-05
1.369998446900e-04+j6.960262244283e-05
1.473416231075e-04+j6.071615576152e-05
1.550418933785e-04+j5.181935538142e-05
1.605627567551e-04+j4.352491754712e-05
1.644147015008e-04+j3.614621389096e-05
1.670514362719e-04+j2.978305294359e-05
1.688328412210e-04+j2.440752893160e-05
1.700257426846e-04+j1.992760005538e-05
1.708198105218e-04+j1.622701780538e-05
1.713462835436e-04+j1.318751250697e-05
1.716943979311e-04+j1.069964363326e-05
1.719241405282e-04+j8.667108963207e-06
1.720755310694e-04+j7.007581385219e-06
1.721751287046e-04+j5.651868754471e-06
1.722404879036e-04+j4.542381287287e-06
1.722831637438e-04+j3.631414557523e-06
1.723107161728e-04+j2.879490736176e-06
1.723280325124e-04+j2.253859043362e-06
1.723381872126e-04+j1.727184093569e-06
1.723429847960e-04+j1.276416239336e-06
1.723432797169e-04+j8.818235340706e-07
1.723391292304e-04+j5.261612103903e-07
1.723298071229e-04+j1.939571619024e-07
1.723136833436e-04-j1.291005143938e-07
1.722879545175e-04-j4.566742431722e-07
1.722481920979e-04-j8.021631190456e-07
1.721876608530e-04-j1.178902500712e-06
1.720963596181e-04-j1.600050596139e-06
1.719597717645e-04-j2.077935906642e-06
1.717574325228e-04-j2.622505155077e-06
1.714617063837e-04-j3.238385294295e-06
1.710377171404e-04-j3.920108708513e-06
1.704461731015e-04-j4.645605031961e-06
1.696514198341e-04-j5.369668422903e-06
1.686360698631e-04-j6.021891881545e-06
1.674191382373e-04-j6.515732212228e-06
1.660674198845e-04-j6.772327375018e-06
1.646871259136e-04-j6.751469201505e-06
1.633935562740e-04-j6.470810781274e-06
1.622751316759e-04-j5.998829427315e-06
1.613734873595e-04-j5.427156516560e-06
1.606866052118e-04-j4.841680716260e-06
1.601853488492e-04-j4.306519759508e-06
1.598305773725e-04-j3.861812836173e-06
1.595843535936e-04-j3.529173534024e-06
1.594149551435e-04-j3.318967840602e-06
1.592978539854e-04-j3.236481632241e-06
1.592147633646e-04-j3.286278186915e-06
1.591520408386e-04-j3.475046758844e-06
1.590990357453e-04-j3.813473087027e-06
1.590465491733e-04-j4.317587012466e-06
1.589853612204e-04-j5.009901132620e-06
1.589046746156e-04-j5.920529346582e-06
1.587902567325e-04-j7.088373922735e-06
1.586219946506e-04-j8.562375271735e-06
1.583704912918e-04-j1.040269803896e-05
1.579922223755e-04-j1.268153474672e-05
1.574226670482e-04-j1.548287693010e-05
1.565667968350e-04-j1.890003835347e-05
1.552865512436e-04-j2.302880386421e-05
1.533858588616e-04-j2.795276933988e-05
1.505961383752e-04-j3.371598910390e-05
1.465700809541e-04-j4.027760968695e-05
1.408993650382e-04-j4.744676423683e-05
1.331799378620e-04-j5.480895150401e-05
1.231454993952e-04-j6.168138553573e-05
1.108559218120e-04-j6.716386527844e-05
9.685577798432e-05-j7.034288630605e-05
8.216220138557e-05-j7.061296218634e-05
6.800621805007e-05-j6.794148953278e-05
5.544290597829e-05-j6.288480443675e-05
4.506852546852e-05-j5.634224717078e-05
3.698195459113e-05-j4.922896302739e-05
3.093220148815e-05-j4.225232549166e-05
2.651145448721e-05-j3.584377014107e-05
2.330063594716e-05-j3.019530065535e-05
2.094726983139e-05-j2.533418503807e-05
1.919173579105e-05-j2.119637493183e-05
1.786189120310e-05-j1.768374681949e-05
1.685084112265e-05-j1.470062674684e-05
1.609028985261e-05-j1.216934419590e-05
1.552987082013e-05-j1.003000683102e-05
1.512679440009e-05-j8.233699379687e-06
1.484340598509e-05-j6.736599472256e-06
</dep>
<dep ac.v(vout) frequency>
2.703430205807e-05+j3.912010324412e-04
4.098845283170e-05+j4.811020896995e-04
6.206627593359e-05+j5.909112817830e-04
9.380307512475e-05+j7.243934733002e-04
1.413603343728e-04+j8.854740728278e-04
2.121144765154e-04+j1.077728550939e-03
3.162634980985e-04+j1.303403496978e-03
4.671872971908e-04+j1.561749870966e-03
6.810029317300e-04+j1.846545173300e-03
9.744113640338e-04+j2.143105672033e-03
1.359901017632e-03+j2.426043105393e-03
1.838416677606e-03+j2.660263436464e-03
2.392246938450e-03+j2.807859926120e-03
2.983614089543e-03+j2.840532012686e-03
3.563128899167e-03+j2.751531337591e-03
4.085182595870e-03+j2.558807911535e-03
4.520994874769e-03+j2.296886540613e-03
4.862273562547e-03+j2.003633140130e-03
5.116382481491e-03+j1.710038727587e-03
5.298570972917e-03+j1.436322279055e-03
5.425685149527e-03+j1.192825058402e-03
5.512697396973e-03+j9.828407471384e-04
5.571483760294e-03+j8.054484547427e-04
5.610849508592e-03+j6.576108018276e-04
5.637053747220e-03+j5.354915875776e-04
5.654427356938e-03+j4.351879127301e-04
5.665915131725e-03+j3.530882398976e-04
5.673496637430e-03+j2.860145957858e-04
5.678492525290e-03+j2.312501857122e-04
5.681779247250e-03+j1.865116688975e-04
5.683936100819e-03+j1.498985824805e-04
5.685344403546e-03+j1.198366803983e-04
5.686253633703e-03+j9.502319429382e-05
5.686825072909e-03+j7.437734843093e-05
5.687160178016e-03+j5.699707508777e-05
5.687318498268e-03+j4.212173589808e-05
5.687328230657e-03+j2.910017662433e-05
5.687191264602e-03+j1.736331994288e-05
5.686883635056e-03+j6.400586342781e-06
5.686351550340e-03-j4.260316974996e-06
5.685502499076e-03-j1.507025002468e-05
5.684190339230e-03-j2.647138292851e-05
5.682192808148e-03-j3.890378252349e-05
5.679179867397e-03-j5.280166967259e-05
5.674672468229e-03-j6.857188491920e-05
5.667995273251e-03-j8.654267011753e-05
5.658236310664e-03-j1.068667147117e-04
5.644244665635e-03-j1.293635873809e-04
5.624723712348e-03-j1.533049660547e-04
5.598496854525e-03-j1.771990579558e-04
5.564990305481e-03-j1.987224320910e-04
5.524831561831e-03-j2.150191630035e-04
5.480224856190e-03-j2.234868033756e-04
5.434675155148e-03-j2.227984836497e-04
5.391987357042e-03-j2.135367557820e-04
