<Qucs Dataset 1.0.0>
<indep time 282>
0.000000000000e+00
2.000000000000e-07
2.124536442786e-07
2.373609328357e-07
2.871755099501e-07
3.868046641787e-07
5.860629726360e-07
9.010878717547e-07
1.396933947906e-06
2.388626100209e-06
3.738620966193e-06
5.629246343320e-06
8.034642985523e-06
1.128578241607e-05
1.548578367482e-05
2.062640251087e-05
2.665703088058e-05
3.411524965303e-05
4.353787979402e-05
5.632449331367e-05
7.470052825124e-05
9.470052825124e-05
1.147005282512e-04
1.347005282512e-04
1.547005282512e-04
1.747005282512e-04
1.833286993914e-04
1.905519447697e-04
1.963655636033e-04
2.025884028495e-04
2.123164918595e-04
2.317726698796e-04
2.517726698796e-04
2.717726698796e-04
2.917726698796e-04
3.117726698796e-04
3.288452550447e-04
3.368923231301e-04
3.428766098609e-04
3.491427731112e-04
3.558545467340e-04
3.638436051197e-04
3.736533010612e-04
3.932654283819e-04
4.127784283144e-04
4.327784283144e-04
4.527784283144e-04
4.727784283144e-04
4.927784283144e-04
5.127784283144e-04
5.327784283144e-04
5.527784283144e-04
5.727784283144e-04
5.927784283144e-04
6.127784283144e-04
6.327784283144e-04
6.527784283144e-04
6.727784283144e-04
6.817312731369e-04
6.876564219096e-04
6.937445743318e-04
6.999864072492e-04
7.072350570025e-04
7.217323565093e-04
7.417323565093e-04
7.617323565093e-04
7.817323565093e-04
8.017323565093e-04
8.217323565093e-04
8.319974332670e-04
8.378017598826e-04
8.433579087492e-04
8.486624970038e-04
8.556261895888e-04
8.626561105855e-04
8.756293437116e-04
8.883877349604e-04
9.083877349604e-04
9.283877349604e-04
9.483877349604e-04
9.683877349604e-04
9.883877349604e-04
1.008387734960e-03
1.028387734960e-03
1.048387734960e-03
1.068387734960e-03
1.088387734960e-03
1.108387734960e-03
1.128387734960e-03
1.148387734960e-03
1.168387734960e-03
1.177481981324e-03
1.183246718238e-03
1.189310471698e-03
1.194009380966e-03
1.199644535755e-03
1.209148601894e-03
1.224174504425e-03
1.244174504425e-03
1.264174504425e-03
1.284174504425e-03
1.304174504425e-03
1.324174504425e-03
1.333231293519e-03
1.339011900046e-03
1.344620573904e-03
1.349578577302e-03
1.356319555516e-03
1.364633282997e-03
1.375554875732e-03
1.393306108751e-03
1.413306108751e-03
1.433306108751e-03
1.453306108751e-03
1.473306108751e-03
1.493306108751e-03
1.513306108751e-03
1.533306108751e-03
1.553306108751e-03
1.573306108751e-03
1.593306108751e-03
1.613306108751e-03
1.633306108751e-03
1.653306108751e-03
1.673306108751e-03
1.682125906685e-03
1.688246337937e-03
1.694466611477e-03
1.700507967023e-03
1.708292317123e-03
1.723861017323e-03
1.743861017323e-03
1.763861017323e-03
1.783861017323e-03
1.803861017323e-03
1.823861017323e-03
1.833478320132e-03
1.838970511917e-03
1.844640448848e-03
1.849836625291e-03
1.857042721389e-03
1.864397921257e-03
1.878955879784e-03
1.892330077144e-03
1.912330077144e-03
1.932330077144e-03
1.952330077144e-03
1.972330077144e-03
1.992330077144e-03
2.012330077144e-03
2.032330077144e-03
2.052330077144e-03
2.072330077144e-03
2.092330077144e-03
2.112330077144e-03
2.132330077144e-03
2.152330077144e-03
2.172330077144e-03
2.180957507288e-03
2.186630484665e-03
2.192535438842e-03
2.199137345574e-03
2.205524995702e-03
2.218300295958e-03
2.236984595055e-03
2.256984595055e-03
2.276984595055e-03
2.296984595055e-03
2.316984595055e-03
2.330137237036e-03
2.336622338041e-03
2.343002818866e-03
2.349543502135e-03
2.356508406668e-03
2.363532044817e-03
2.377152015379e-03
2.389475408563e-03
2.409475408563e-03
2.429475408563e-03
2.449475408563e-03
2.469475408563e-03
2.489475408563e-03
2.509475408563e-03
2.529475408563e-03
2.549475408563e-03
2.569475408563e-03
2.589475408563e-03
2.609475408563e-03
2.629475408563e-03
2.649475408563e-03
2.669475408563e-03
2.678280197390e-03
2.683918815820e-03
2.689856500020e-03
2.694368857353e-03
2.700127034111e-03
2.710300349679e-03
2.724430667455e-03
2.744430667455e-03
2.764430667455e-03
2.784430667455e-03
2.804430667455e-03
2.824430667455e-03
2.833198047558e-03
2.839026915494e-03
2.844587471320e-03
2.849486722367e-03
2.856072837396e-03
2.864966572960e-03
2.875077662983e-03
2.895077662983e-03
2.915077662983e-03
2.935077662983e-03
2.955077662983e-03
2.975077662983e-03
2.995077662983e-03
3.015077662983e-03
3.035077662983e-03
3.055077662983e-03
3.075077662983e-03
3.095077662983e-03
3.115077662983e-03
3.135077662983e-03
3.155077662983e-03
3.175077662983e-03
3.183837959768e-03
3.192257750006e-03
3.198270697465e-03
3.204792844951e-03
3.216285261329e-03
3.236285261329e-03
3.256285261329e-03
3.276285261329e-03
3.296285261329e-03
3.316285261329e-03
3.328960122651e-03
3.336015339867e-03
3.341740920076e-03
3.347676710322e-03
3.354869463935e-03
3.361738227883e-03
3.372280767619e-03
3.386457756264e-03
3.406457756264e-03
3.426457756264e-03
3.446457756264e-03
3.466457756264e-03
3.486457756264e-03
3.506457756264e-03
3.526457756264e-03
3.546457756264e-03
3.566457756264e-03
3.586457756264e-03
3.606457756264e-03
3.626457756264e-03
3.646457756264e-03
3.666457756264e-03
3.676328647431e-03
3.683061925145e-03
3.689490029160e-03
3.694754021870e-03
3.700509390792e-03
3.709436814348e-03
3.727291661460e-03
3.747291661460e-03
3.767291661460e-03
3.787291661460e-03
3.807291661460e-03
3.827291661460e-03
3.835946026257e-03
3.841518993755e-03
3.847643488493e-03
3.855171925229e-03
3.862082239801e-03
3.872415785191e-03
3.887668311767e-03
3.907668311767e-03
3.927668311767e-03
3.947668311767e-03
3.967668311767e-03
3.987668311767e-03
4.000000000000e-03
</indep>
<dep tran.v(vcc) time>
5.000000000000e+00
5.000000000000e+00
5.000000000000e+00
5.000000000000e+00
5.000000000000e+00
5.000000000000e+00
5.000000000000e+00
5.000000000000e+00
5.000000000000e+00
5.000000000000e+00
5.000000000000e+00
5.000000000000e+00
5.000000000000e+00
5.000000000000e+00
5.000000000000e+00
5.000000000000e+00
5.000000000000e+00
5.000000000000e+00
5.000000000000e+00
5.000000000000e+00
5.000000000000e+00
5.000000000000e+00
5.000000000000e+00
5.000000000000e+00
5.000000000000e+00
5.000000000000e+00
5.000000000000e+00
5.000000000000e+00
5.000000000000e+00
5.000000000000e+00
5.000000000000e+00
5.000000000000e+00
5.000000000000e+00
5.000000000000e+00
5.000000000000e+00
5.000000000000e+00
5.000000000000e+00
5.000000000000e+00
5.000000000000e+00
5.000000000000e+00
5.000000000000e+00
5.000000000000e+00
5.000000000000e+00
5.000000000000e+00
5.000000000000e+00
5.000000000000e+00
5.000000000000e+00
5.000000000000e+00
5.000000000000e+00
5.000000000000e+00
5.000000000000e+00
5.000000000000e+00
5.000000000000e+00
5.000000000000e+00
5.000000000000e+00
5.000000000000e+00
5.000000000000e+00
5.000000000000e+00
5.000000000000e+00
5.000000000000e+00
5.000000000000e+00
5.000000000000e+00
5.000000000000e+00
5.000000000000e+00
5.000000000000e+00
5.000000000000e+00
5.000000000000e+00
5.000000000000e+00
5.000000000000e+00
5.000000000000e+00
5.000000000000e+00
5.000000000000e+00
5.000000000000e+00
5.000000000000e+00
5.000000000000e+00
5.000000000000e+00
5.000000000000e+00
5.000000000000e+00
5.000000000000e+00
5.000000000000e+00
5.000000000000e+00
5.000000000000e+00
5.000000000000e+00
5.000000000000e+00
5.000000000000e+00
5.000000000000e+00
5.000000000000e+00
5.000000000000e+00
5.000000000000e+00
5.000000000000e+00
5.000000000000e+00
5.000000000000e+00
5.000000000000e+00
5.000000000000e+00
5.000000000000e+00
5.000000000000e+00
5.000000000000e+00
5.000000000000e+00
5.000000000000e+00
5.000000000000e+00
5.000000000000e+00
5.000000000000e+00
5.000000000000e+00
5.000000000000e+00
5.000000000000e+00
5.000000000000e+00
5.000000000000e+00
5.000000000000e+00
5.000000000000e+00
5.000000000000e+00
5.000000000000e+00
5.000000000000e+00
5.000000000000e+00
5.000000000000e+00
5.000000000000e+00
5.000000000000e+00
5.000000000000e+00
5.000000000000e+00
5.000000000000e+00
5.000000000000e+00
5.000000000000e+00
5.000000000000e+00
5.000000000000e+00
5.000000000000e+00
5.000000000000e+00
5.000000000000e+00
5.000000000000e+00
5.000000000000e+00
5.000000000000e+00
5.000000000000e+00
5.000000000000e+00
5.000000000000e+00
5.000000000000e+00
5.000000000000e+00
5.000000000000e+00
5.000000000000e+00
5.000000000000e+00
5.000000000000e+00
5.000000000000e+00
5.000000000000e+00
5.000000000000e+00
5.000000000000e+00
5.000000000000e+00
5.000000000000e+00
5.000000000000e+00
5.000000000000e+00
5.000000000000e+00
5.000000000000e+00
5.000000000000e+00
5.000000000000e+00
5.000000000000e+00
5.000000000000e+00
5.000000000000e+00
5.000000000000e+00
5.000000000000e+00
5.000000000000e+00
5.000000000000e+00
5.000000000000e+00
5.000000000000e+00
5.000000000000e+00
5.000000000000e+00
5.000000000000e+00
5.000000000000e+00
5.000000000000e+00
5.000000000000e+00
5.000000000000e+00
5.000000000000e+00
5.000000000000e+00
5.000000000000e+00
5.000000000000e+00
5.000000000000e+00
5.000000000000e+00
5.000000000000e+00
5.000000000000e+00
5.000000000000e+00
5.000000000000e+00
5.000000000000e+00
5.000000000000e+00
5.000000000000e+00
5.000000000000e+00
5.000000000000e+00
5.000000000000e+00
5.000000000000e+00
5.000000000000e+00
5.000000000000e+00
5.000000000000e+00
5.000000000000e+00
5.000000000000e+00
5.000000000000e+00
5.000000000000e+00
5.000000000000e+00
5.000000000000e+00
5.000000000000e+00
5.000000000000e+00
5.000000000000e+00
5.000000000000e+00
5.000000000000e+00
5.000000000000e+00
5.000000000000e+00
5.000000000000e+00
5.000000000000e+00
5.000000000000e+00
5.000000000000e+00
5.000000000000e+00
5.000000000000e+00
5.000000000000e+00
5.000000000000e+00
5.000000000000e+00
5.000000000000e+00
5.000000000000e+00
5.000000000000e+00
5.000000000000e+00
5.000000000000e+00
5.000000000000e+00
5.000000000000e+00
5.000000000000e+00
5.000000000000e+00
5.000000000000e+00
5.000000000000e+00
5.000000000000e+00
5.000000000000e+00
5.000000000000e+00
5.000000000000e+00
5.000000000000e+00
5.000000000000e+00
5.000000000000e+00
5.000000000000e+00
5.000000000000e+00
5.000000000000e+00
5.000000000000e+00
5.000000000000e+00
5.000000000000e+00
5.000000000000e+00
5.000000000000e+00
5.000000000000e+00
5.000000000000e+00
5.000000000000e+00
5.000000000000e+00
5.000000000000e+00
5.000000000000e+00
5.000000000000e+00
5.000000000000e+00
5.000000000000e+00
5.000000000000e+00
5.000000000000e+00
5.000000000000e+00
5.000000000000e+00
5.000000000000e+00
5.000000000000e+00
5.000000000000e+00
5.000000000000e+00
5.000000000000e+00
5.000000000000e+00
5.000000000000e+00
5.000000000000e+00
5.000000000000e+00
5.000000000000e+00
5.000000000000e+00
5.000000000000e+00
5.000000000000e+00
5.000000000000e+00
5.000000000000e+00
5.000000000000e+00
5.000000000000e+00
5.000000000000e+00
5.000000000000e+00
5.000000000000e+00
5.000000000000e+00
5.000000000000e+00
5.000000000000e+00
5.000000000000e+00
5.000000000000e+00
5.000000000000e+00
5.000000000000e+00
5.000000000000e+00
5.000000000000e+00
5.000000000000e+00
5.000000000000e+00
5.000000000000e+00
5.000000000000e+00
5.000000000000e+00
5.000000000000e+00
</dep>
<dep tran.v(vee) time>
-5.000000000000e+00
-5.000000000000e+00
-5.000000000000e+00
-5.000000000000e+00
-5.000000000000e+00
-5.000000000000e+00
-5.000000000000e+00
-5.000000000000e+00
-5.000000000000e+00
-5.000000000000e+00
-5.000000000000e+00
-5.000000000000e+00
-5.000000000000e+00
-5.000000000000e+00
-5.000000000000e+00
-5.000000000000e+00
-5.000000000000e+00
-5.000000000000e+00
-5.000000000000e+00
-5.000000000000e+00
-5.000000000000e+00
-5.000000000000e+00
-5.000000000000e+00
-5.000000000000e+00
-5.000000000000e+00
-5.000000000000e+00
-5.000000000000e+00
-5.000000000000e+00
-5.000000000000e+00
-5.000000000000e+00
-5.000000000000e+00
-5.000000000000e+00
-5.000000000000e+00
-5.000000000000e+00
-5.000000000000e+00
-5.000000000000e+00
-5.000000000000e+00
-5.000000000000e+00
-5.000000000000e+00
-5.000000000000e+00
-5.000000000000e+00
-5.000000000000e+00
-5.000000000000e+00
-5.000000000000e+00
-5.000000000000e+00
-5.000000000000e+00
-5.000000000000e+00
-5.000000000000e+00
-5.000000000000e+00
-5.000000000000e+00
-5.000000000000e+00
-5.000000000000e+00
-5.000000000000e+00
-5.000000000000e+00
-5.000000000000e+00
-5.000000000000e+00
-5.000000000000e+00
-5.000000000000e+00
-5.000000000000e+00
-5.000000000000e+00
-5.000000000000e+00
-5.000000000000e+00
-5.000000000000e+00
-5.000000000000e+00
-5.000000000000e+00
-5.000000000000e+00
-5.000000000000e+00
-5.000000000000e+00
-5.000000000000e+00
-5.000000000000e+00
-5.000000000000e+00
-5.000000000000e+00
-5.000000000000e+00
-5.000000000000e+00
-5.000000000000e+00
-5.000000000000e+00
-5.000000000000e+00
-5.000000000000e+00
-5.000000000000e+00
-5.000000000000e+00
-5.000000000000e+00
-5.000000000000e+00
-5.000000000000e+00
-5.000000000000e+00
-5.000000000000e+00
-5.000000000000e+00
-5.000000000000e+00
-5.000000000000e+00
-5.000000000000e+00
-5.000000000000e+00
-5.000000000000e+00
-5.000000000000e+00
-5.000000000000e+00
-5.000000000000e+00
-5.000000000000e+00
-5.000000000000e+00
-5.000000000000e+00
-5.000000000000e+00
-5.000000000000e+00
-5.000000000000e+00
-5.000000000000e+00
-5.000000000000e+00
-5.000000000000e+00
-5.000000000000e+00
-5.000000000000e+00
-5.000000000000e+00
-5.000000000000e+00
-5.000000000000e+00
-5.000000000000e+00
-5.000000000000e+00
-5.000000000000e+00
-5.000000000000e+00
-5.000000000000e+00
-5.000000000000e+00
-5.000000000000e+00
-5.000000000000e+00
-5.000000000000e+00
-5.000000000000e+00
-5.000000000000e+00
-5.000000000000e+00
-5.000000000000e+00
-5.000000000000e+00
-5.000000000000e+00
-5.000000000000e+00
-5.000000000000e+00
-5.000000000000e+00
-5.000000000000e+00
-5.000000000000e+00
-5.000000000000e+00
-5.000000000000e+00
-5.000000000000e+00
-5.000000000000e+00
-5.000000000000e+00
-5.000000000000e+00
-5.000000000000e+00
-5.000000000000e+00
-5.000000000000e+00
-5.000000000000e+00
-5.000000000000e+00
-5.000000000000e+00
-5.000000000000e+00
-5.000000000000e+00
-5.000000000000e+00
-5.000000000000e+00
-5.000000000000e+00
-5.000000000000e+00
-5.000000000000e+00
-5.000000000000e+00
-5.000000000000e+00
-5.000000000000e+00
-5.000000000000e+00
-5.000000000000e+00
-5.000000000000e+00
-5.000000000000e+00
-5.000000000000e+00
-5.000000000000e+00
-5.000000000000e+00
-5.000000000000e+00
-5.000000000000e+00
-5.000000000000e+00
-5.000000000000e+00
-5.000000000000e+00
-5.000000000000e+00
-5.000000000000e+00
-5.000000000000e+00
-5.000000000000e+00
-5.000000000000e+00
-5.000000000000e+00
-5.000000000000e+00
-5.000000000000e+00
-5.000000000000e+00
-5.000000000000e+00
-5.000000000000e+00
-5.000000000000e+00
-5.000000000000e+00
-5.000000000000e+00
-5.000000000000e+00
-5.000000000000e+00
-5.000000000000e+00
-5.000000000000e+00
-5.000000000000e+00
-5.000000000000e+00
-5.000000000000e+00
-5.000000000000e+00
-5.000000000000e+00
-5.000000000000e+00
-5.000000000000e+00
-5.000000000000e+00
-5.000000000000e+00
-5.000000000000e+00
-5.000000000000e+00
-5.000000000000e+00
-5.000000000000e+00
-5.000000000000e+00
-5.000000000000e+00
-5.000000000000e+00
-5.000000000000e+00
-5.000000000000e+00
-5.000000000000e+00
-5.000000000000e+00
-5.000000000000e+00
-5.000000000000e+00
-5.000000000000e+00
-5.000000000000e+00
-5.000000000000e+00
-5.000000000000e+00
-5.000000000000e+00
-5.000000000000e+00
-5.000000000000e+00
-5.000000000000e+00
-5.000000000000e+00
-5.000000000000e+00
-5.000000000000e+00
-5.000000000000e+00
-5.000000000000e+00
-5.000000000000e+00
-5.000000000000e+00
-5.000000000000e+00
-5.000000000000e+00
-5.000000000000e+00
-5.000000000000e+00
-5.000000000000e+00
-5.000000000000e+00
-5.000000000000e+00
-5.000000000000e+00
-5.000000000000e+00
-5.000000000000e+00
-5.000000000000e+00
-5.000000000000e+00
-5.000000000000e+00
-5.000000000000e+00
-5.000000000000e+00
-5.000000000000e+00
-5.000000000000e+00
-5.000000000000e+00
-5.000000000000e+00
-5.000000000000e+00
-5.000000000000e+00
-5.000000000000e+00
-5.000000000000e+00
-5.000000000000e+00
-5.000000000000e+00
-5.000000000000e+00
-5.000000000000e+00
-5.000000000000e+00
-5.000000000000e+00
-5.000000000000e+00
-5.000000000000e+00
-5.000000000000e+00
-5.000000000000e+00
-5.000000000000e+00
-5.000000000000e+00
-5.000000000000e+00
-5.000000000000e+00
-5.000000000000e+00
-5.000000000000e+00
-5.000000000000e+00
-5.000000000000e+00
-5.000000000000e+00
-5.000000000000e+00
-5.000000000000e+00
-5.000000000000e+00
-5.000000000000e+00
-5.000000000000e+00
-5.000000000000e+00
-5.000000000000e+00
-5.000000000000e+00
-5.000000000000e+00
-5.000000000000e+00
-5.000000000000e+00
-5.000000000000e+00
-5.000000000000e+00
-5.000000000000e+00
-5.000000000000e+00
-5.000000000000e+00
-5.000000000000e+00
-5.000000000000e+00
-5.000000000000e+00
-5.000000000000e+00
-5.000000000000e+00
-5.000000000000e+00
-5.000000000000e+00
</dep>
<dep tran.v(vin) time>
0.000000000000e+00
1.256636730702e-04
1.334885219745e-04
1.491382172831e-04
1.804375965592e-04
2.430362990154e-04
3.682333936879e-04
5.661671828814e-04
8.777082159080e-04
1.500761700272e-03
2.348828804072e-03
3.536222376510e-03
5.046171036091e-03
7.085125025503e-03
9.714659299870e-03
1.292370208144e-02
1.667090508288e-02
2.127147282559e-02
2.701574579058e-02
3.465561445701e-02
4.523131466495e-02
5.605261187368e-02
6.598992590896e-02
7.488653939219e-02
8.260214741414e-02
8.901507022725e-02
9.135336147454e-02
9.310475375769e-02
9.437525022194e-02
9.559561924815e-02
9.721001079427e-02
9.934490977518e-02
9.999379729706e-02
9.906572290217e-02
9.657532287812e-02
9.256187232098e-02
8.797789367153e-02
8.546289205209e-02
8.345058646289e-02
8.121711234028e-02
7.868527716617e-02
7.548962157281e-02
7.130646219694e-02
6.214820939069e-02
5.210061429967e-02
4.099193055999e-02
2.923677958799e-02
1.702054713668e-02
4.535890489442e-03
-8.020299860423e-03
-2.045000529039e-02
-3.255720192070e-02
-4.415095202798e-02
-5.504841524728e-02
-6.507773207380e-02
-7.408073418996e-02
-8.191543887427e-02
-8.845828815361e-02
-9.094050168332e-02
-9.242551981727e-02
-9.381795360811e-02
-9.510301209915e-02
-9.641168164216e-02
-9.842686143488e-02
-9.986510509116e-02
-9.972841638363e-02
-9.801895097486e-02
-9.476366815554e-02
-9.001390568033e-02
-8.701917008979e-02
-8.516479681769e-02
-8.328357805448e-02
-8.139279860556e-02
-7.877374413107e-02
-7.597685746699e-02
-7.043051597556e-02
-6.451965726978e-02
-5.443523326008e-02
-4.349233310382e-02
-3.186353287346e-02
-1.973222569534e-02
-7.289729530538e-03
5.267730023633e-03
1.774211432854e-02
2.993669489187e-02
4.165915589343e-02
5.272462712058e-02
6.295859948187e-02
7.219967711969e-02
8.030212271934e-02
8.713815587354e-02
8.979777624324e-02
9.133239686849e-02
9.281728895822e-02
9.387541700865e-02
9.503639714955e-02
9.672389439241e-02
9.868636735665e-02
9.993301971263e-02
9.960366865065e-02
9.770350823370e-02
9.426250512666e-02
8.933492600408e-02
8.663457933018e-02
8.476382672916e-02
8.284182319444e-02
8.105705394406e-02
7.850462931451e-02
7.516328393906e-02
7.046372408579e-02
6.212818275173e-02
5.181733179202e-02
4.068929055577e-02
2.891955490085e-02
1.669374058945e-02
4.204656016588e-03
-8.350738493393e-03
-2.077443686884e-02
-3.287050996483e-02
-4.444819548277e-02
-5.532490640589e-02
-6.532911050549e-02
-7.430303550670e-02
-8.210515725148e-02
-8.861243161917e-02
-9.104334963288e-02
-9.256639156345e-02
-9.397402480902e-02
-9.520379449712e-02
-9.658590933235e-02
-9.865435444753e-02
-9.992561785300e-02
-9.962099457226e-02
-9.774528869642e-02
-9.432808122763e-02
-8.942326356902e-02
-8.655695550372e-02
-8.477762141651e-02
-8.283482800939e-02
-8.096199375641e-02
-7.822236097072e-02
-7.526074207723e-02
-6.893146669808e-02
-6.260755316488e-02
-5.234085938105e-02
-4.124871897787e-02
-2.950606163562e-02
-1.729807607530e-02
-4.817289521912e-03
7.739468564949e-03
2.017417060921e-02
3.229071393149e-02
4.389801340554e-02
5.481301498478e-02
6.486358257400e-02
7.389121271841e-02
8.175353429777e-02
8.832655380407e-02
9.073722336839e-02
9.217750306619e-02
9.355227154613e-02
9.493676147436e-02
9.612087522006e-02
9.802301238009e-02
9.966580260368e-02
9.990371857658e-02
9.856609322794e-02
9.567402170857e-02
9.127311371396e-02
8.758909449961e-02
8.555085104375e-02
8.340686630297e-02
8.106995855318e-02
7.843107247768e-02
7.561786433771e-02
6.974812804897e-02
6.399602152814e-02
5.386068729227e-02
4.287593784298e-02
3.121500924107e-02
1.906180129648e-02
