<Qucs Dataset 1.0.0>
<indep frequency 106>
1.000000000000e+01
1.115883992508e+01
1.245197084735e+01
1.389495494373e+01
1.550515779833e+01
1.730195738846e+01
1.930697728883e+01
2.154434690032e+01
2.404099183510e+01
2.682695795280e+01
2.993577294720e+01
3.340484983513e+01
3.727593720315e+01
4.159562163072e+01
4.641588833613e+01
5.179474679231e+01
5.779692884153e+01
6.449466771038e+01
7.196856730012e+01
8.030857221392e+01
8.961505019466e+01
1.000000000000e+02
1.115883992508e+02
1.245197084735e+02
1.389495494373e+02
1.550515779833e+02
1.730195738846e+02
1.930697728883e+02
2.154434690032e+02
2.404099183510e+02
2.682695795280e+02
2.993577294720e+02
3.340484983513e+02
3.727593720315e+02
4.159562163072e+02
4.641588833613e+02
5.179474679231e+02
5.779692884153e+02
6.449466771038e+02
7.196856730011e+02
8.030857221391e+02
8.961505019466e+02
1.000000000000e+03
1.115883992508e+03
1.245197084735e+03
1.389495494373e+03
1.550515779833e+03
1.730195738846e+03
1.930697728883e+03
2.154434690032e+03
2.404099183510e+03
2.682695795280e+03
2.993577294720e+03
3.340484983513e+03
3.727593720315e+03
4.159562163072e+03
4.641588833613e+03
5.179474679231e+03
5.779692884153e+03
6.449466771038e+03
7.196856730011e+03
8.030857221391e+03
8.961505019466e+03
1.000000000000e+04
1.115883992508e+04
1.245197084735e+04
1.389495494373e+04
1.550515779833e+04
1.730195738846e+04
1.930697728883e+04
2.154434690032e+04
2.404099183510e+04
2.682695795280e+04
2.993577294720e+04
3.340484983513e+04
3.727593720315e+04
4.159562163072e+04
4.641588833613e+04
5.179474679231e+04
5.779692884153e+04
6.449466771038e+04
7.196856730011e+04
8.030857221391e+04
8.961505019466e+04
1.000000000000e+05
1.115883992508e+05
1.245197084735e+05
1.389495494373e+05
1.550515779833e+05
1.730195738846e+05
1.930697728883e+05
2.154434690032e+05
2.404099183510e+05
2.682695795280e+05
2.993577294720e+05
3.340484983513e+05
3.727593720315e+05
4.159562163072e+05
4.641588833613e+05
5.179474679231e+05
5.779692884153e+05
6.449466771038e+05
7.196856730011e+05
8.030857221391e+05
8.961505019466e+05
1.000000000000e+06
</indep>
<dep ac.v(vcc) frequency>
0.000000000000e+00+j0.000000000000e+00
0.000000000000e+00+j0.000000000000e+00
0.000000000000e+00+j0.000000000000e+00
0.000000000000e+00+j0.000000000000e+00
0.000000000000e+00+j0.000000000000e+00
0.000000000000e+00+j0.000000000000e+00
0.000000000000e+00+j0.000000000000e+00
0.000000000000e+00+j0.000000000000e+00
0.000000000000e+00+j0.000000000000e+00
0.000000000000e+00+j0.000000000000e+00
0.000000000000e+00+j0.000000000000e+00
0.000000000000e+00+j0.000000000000e+00
0.000000000000e+00+j0.000000000000e+00
0.000000000000e+00+j0.000000000000e+00
0.000000000000e+00+j0.000000000000e+00
0.000000000000e+00+j0.000000000000e+00
0.000000000000e+00+j0.000000000000e+00
0.000000000000e+00+j0.000000000000e+00
0.000000000000e+00+j0.000000000000e+00
0.000000000000e+00+j0.000000000000e+00
0.000000000000e+00+j0.000000000000e+00
0.000000000000e+00+j0.000000000000e+00
0.000000000000e+00+j0.000000000000e+00
0.000000000000e+00+j0.000000000000e+00
0.000000000000e+00+j0.000000000000e+00
0.000000000000e+00+j0.000000000000e+00
0.000000000000e+00+j0.000000000000e+00
0.000000000000e+00+j0.000000000000e+00
0.000000000000e+00+j0.000000000000e+00
0.000000000000e+00+j0.000000000000e+00
0.000000000000e+00+j0.000000000000e+00
0.000000000000e+00+j0.000000000000e+00
0.000000000000e+00+j0.000000000000e+00
0.000000000000e+00+j0.000000000000e+00
0.000000000000e+00+j0.000000000000e+00
0.000000000000e+00+j0.000000000000e+00
0.000000000000e+00+j0.000000000000e+00
0.000000000000e+00+j0.000000000000e+00
0.000000000000e+00+j0.000000000000e+00
0.000000000000e+00+j0.000000000000e+00
0.000000000000e+00+j0.000000000000e+00
0.000000000000e+00+j0.000000000000e+00
0.000000000000e+00+j0.000000000000e+00
0.000000000000e+00+j0.000000000000e+00
0.000000000000e+00+j0.000000000000e+00
0.000000000000e+00+j0.000000000000e+00
0.000000000000e+00+j0.000000000000e+00
0.000000000000e+00+j0.000000000000e+00
0.000000000000e+00+j0.000000000000e+00
0.000000000000e+00+j0.000000000000e+00
0.000000000000e+00+j0.000000000000e+00
0.000000000000e+00+j0.000000000000e+00
0.000000000000e+00+j0.000000000000e+00
0.000000000000e+00+j0.000000000000e+00
0.000000000000e+00+j0.000000000000e+00
0.000000000000e+00+j0.000000000000e+00
0.000000000000e+00+j0.000000000000e+00
0.000000000000e+00+j0.000000000000e+00
0.000000000000e+00+j0.000000000000e+00
0.000000000000e+00+j0.000000000000e+00
0.000000000000e+00+j0.000000000000e+00
0.000000000000e+00+j0.000000000000e+00
0.000000000000e+00+j0.000000000000e+00
0.000000000000e+00+j0.000000000000e+00
0.000000000000e+00+j0.000000000000e+00
0.000000000000e+00+j0.000000000000e+00
0.000000000000e+00+j0.000000000000e+00
0.000000000000e+00+j0.000000000000e+00
0.000000000000e+00+j0.000000000000e+00
0.000000000000e+00+j0.000000000000e+00
0.000000000000e+00+j0.000000000000e+00
0.000000000000e+00+j0.000000000000e+00
0.000000000000e+00+j0.000000000000e+00
0.000000000000e+00+j0.000000000000e+00
0.000000000000e+00+j0.000000000000e+00
0.000000000000e+00+j0.000000000000e+00
0.000000000000e+00+j0.000000000000e+00
0.000000000000e+00+j0.000000000000e+00
0.000000000000e+00+j0.000000000000e+00
0.000000000000e+00+j0.000000000000e+00
0.000000000000e+00+j0.000000000000e+00
0.000000000000e+00+j0.000000000000e+00
0.000000000000e+00+j0.000000000000e+00
0.000000000000e+00+j0.000000000000e+00
0.000000000000e+00+j0.000000000000e+00
0.000000000000e+00+j0.000000000000e+00
0.000000000000e+00+j0.000000000000e+00
0.000000000000e+00+j0.000000000000e+00
0.000000000000e+00+j0.000000000000e+00
0.000000000000e+00+j0.000000000000e+00
0.000000000000e+00+j0.000000000000e+00
0.000000000000e+00+j0.000000000000e+00
0.000000000000e+00+j0.000000000000e+00
0.000000000000e+00+j0.000000000000e+00
0.000000000000e+00+j0.000000000000e+00
0.000000000000e+00+j0.000000000000e+00
0.000000000000e+00+j0.000000000000e+00
0.000000000000e+00+j0.000000000000e+00
0.000000000000e+00+j0.000000000000e+00
0.000000000000e+00+j0.000000000000e+00
0.000000000000e+00+j0.000000000000e+00
0.000000000000e+00+j0.000000000000e+00
0.000000000000e+00+j0.000000000000e+00
0.000000000000e+00+j0.000000000000e+00
0.000000000000e+00+j0.000000000000e+00
0.000000000000e+00+j0.000000000000e+00
</dep>
<dep ac.v(vee) frequency>
0.000000000000e+00+j0.000000000000e+00
0.000000000000e+00+j0.000000000000e+00
0.000000000000e+00+j0.000000000000e+00
0.000000000000e+00+j0.000000000000e+00
0.000000000000e+00+j0.000000000000e+00
0.000000000000e+00+j0.000000000000e+00
0.000000000000e+00+j0.000000000000e+00
0.000000000000e+00+j0.000000000000e+00
0.000000000000e+00+j0.000000000000e+00
0.000000000000e+00+j0.000000000000e+00
0.000000000000e+00+j0.000000000000e+00
0.000000000000e+00+j0.000000000000e+00
0.000000000000e+00+j0.000000000000e+00
0.000000000000e+00+j0.000000000000e+00
0.000000000000e+00+j0.000000000000e+00
0.000000000000e+00+j0.000000000000e+00
0.000000000000e+00+j0.000000000000e+00
0.000000000000e+00+j0.000000000000e+00
0.000000000000e+00+j0.000000000000e+00
0.000000000000e+00+j0.000000000000e+00
0.000000000000e+00+j0.000000000000e+00
0.000000000000e+00+j0.000000000000e+00
0.000000000000e+00+j0.000000000000e+00
0.000000000000e+00+j0.000000000000e+00
0.000000000000e+00+j0.000000000000e+00
0.000000000000e+00+j0.000000000000e+00
0.000000000000e+00+j0.000000000000e+00
0.000000000000e+00+j0.000000000000e+00
0.000000000000e+00+j0.000000000000e+00
0.000000000000e+00+j0.000000000000e+00
0.000000000000e+00+j0.000000000000e+00
0.000000000000e+00+j0.000000000000e+00
0.000000000000e+00+j0.000000000000e+00
0.000000000000e+00+j0.000000000000e+00
0.000000000000e+00+j0.000000000000e+00
0.000000000000e+00+j0.000000000000e+00
0.000000000000e+00+j0.000000000000e+00
0.000000000000e+00+j0.000000000000e+00
0.000000000000e+00+j0.000000000000e+00
0.000000000000e+00+j0.000000000000e+00
0.000000000000e+00+j0.000000000000e+00
0.000000000000e+00+j0.000000000000e+00
0.000000000000e+00+j0.000000000000e+00
0.000000000000e+00+j0.000000000000e+00
0.000000000000e+00+j0.000000000000e+00
0.000000000000e+00+j0.000000000000e+00
0.000000000000e+00+j0.000000000000e+00
0.000000000000e+00+j0.000000000000e+00
0.000000000000e+00+j0.000000000000e+00
0.000000000000e+00+j0.000000000000e+00
0.000000000000e+00+j0.000000000000e+00
0.000000000000e+00+j0.000000000000e+00
0.000000000000e+00+j0.000000000000e+00
0.000000000000e+00+j0.000000000000e+00
0.000000000000e+00+j0.000000000000e+00
0.000000000000e+00+j0.000000000000e+00
0.000000000000e+00+j0.000000000000e+00
0.000000000000e+00+j0.000000000000e+00
0.000000000000e+00+j0.000000000000e+00
0.000000000000e+00+j0.000000000000e+00
0.000000000000e+00+j0.000000000000e+00
0.000000000000e+00+j0.000000000000e+00
0.000000000000e+00+j0.000000000000e+00
0.000000000000e+00+j0.000000000000e+00
0.000000000000e+00+j0.000000000000e+00
0.000000000000e+00+j0.000000000000e+00
0.000000000000e+00+j0.000000000000e+00
0.000000000000e+00+j0.000000000000e+00
0.000000000000e+00+j0.000000000000e+00
0.000000000000e+00+j0.000000000000e+00
0.000000000000e+00+j0.000000000000e+00
0.000000000000e+00+j0.000000000000e+00
0.000000000000e+00+j0.000000000000e+00
0.000000000000e+00+j0.000000000000e+00
0.000000000000e+00+j0.000000000000e+00
0.000000000000e+00+j0.000000000000e+00
0.000000000000e+00+j0.000000000000e+00
0.000000000000e+00+j0.000000000000e+00
0.000000000000e+00+j0.000000000000e+00
0.000000000000e+00+j0.000000000000e+00
0.000000000000e+00+j0.000000000000e+00
0.000000000000e+00+j0.000000000000e+00
0.000000000000e+00+j0.000000000000e+00
0.000000000000e+00+j0.000000000000e+00
0.000000000000e+00+j0.000000000000e+00
0.000000000000e+00+j0.000000000000e+00
0.000000000000e+00+j0.000000000000e+00
0.000000000000e+00+j0.000000000000e+00
0.000000000000e+00+j0.000000000000e+00
0.000000000000e+00+j0.000000000000e+00
0.000000000000e+00+j0.000000000000e+00
0.000000000000e+00+j0.000000000000e+00
0.000000000000e+00+j0.000000000000e+00
0.000000000000e+00+j0.000000000000e+00
0.000000000000e+00+j0.000000000000e+00
0.000000000000e+00+j0.000000000000e+00
0.000000000000e+00+j0.000000000000e+00
0.000000000000e+00+j0.000000000000e+00
0.000000000000e+00+j0.000000000000e+00
0.000000000000e+00+j0.000000000000e+00
0.000000000000e+00+j0.000000000000e+00
0.000000000000e+00+j0.000000000000e+00
0.000000000000e+00+j0.000000000000e+00
0.000000000000e+00+j0.000000000000e+00
0.000000000000e+00+j0.000000000000e+00
0.000000000000e+00+j0.000000000000e+00
</dep>
<dep ac.v(vout) frequency>
9.998919193579e-01-j1.257665698815e-02
9.998744911287e-01-j1.403414517873e-02
9.998527880850e-01-j1.566055430978e-02
9.998257612493e-01-j1.747546793154e-02
9.997921039944e-01-j1.950074224347e-02
9.997501886246e-01-j2.176077070824e-02
9.996979872721e-01-j2.428277981172e-02
9.996329731902e-01-j2.709715976183e-02
9.995519975203e-01-j3.023783442734e-02
9.994511353436e-01-j3.374267540898e-02
9.993254932102e-01-j3.765396582827e-02
9.991689682759e-01-j4.201892023454e-02
9.989739465211e-01-j4.689026799563e-02
9.987309240977e-01-j5.232690868096e-02
9.984280313768e-01-j5.839464930218e-02
9.980504334040e-01-j6.516703487579e-02
9.975795726907e-01-j7.272628563484e-02
9.969922098720e-01-j8.116435632901e-02
9.962592037077e-01-j9.058413532845e-02
9.953439527252e-01-j1.011008034518e-01
9.942003943581e-01-j1.128433740443e-01
9.927704206366e-01-j1.259564357596e-01
9.909805178559e-01-j1.406021156452e-01
9.887373647520e-01-j1.569622685232e-01
9.859220204054e-01-j1.752408719351e-01
9.823821866843e-01-j1.956665506618e-01
9.779218236293e-01-j2.184950467952e-01
9.722871090417e-01-j2.440112472433e-01
9.651473445474e-01-j2.725300038294e-01
9.560689096644e-01-j3.043942982899e-01
9.444797852682e-01-j3.399680873510e-01
9.296216583180e-01-j3.796190350138e-01
9.104866192603e-01-j4.236827160559e-01
8.857370618876e-01-j4.723939610550e-01
8.536130380120e-01-j5.257620599581e-01
8.118459670921e-01-j5.833549452427e-01
7.576299307777e-01-j6.439480749434e-01
6.877627854109e-01-j7.050035919262e-01
5.991594541630e-01-j7.620166876717e-01
4.900063698414e-01-j8.079705488067e-01
3.616859957364e-01-j8.335155137491e-01
2.209454836242e-01-j8.288003046138e-01
8.063359624219e-02-j7.873678040855e-01
-4.305124066675e-02-j7.105186429901e-01
-1.365643398927e-01-j6.085690100249e-01
-1.943441234555e-01-j4.970042096924e-01
-2.195047134741e-01-j3.902063618897e-01
-2.203141806002e-01-j2.972980408109e-01
-2.059366939027e-01-j2.217102514519e-01
-1.838653204830e-01-j1.629476439688e-01
-1.592113642018e-01-j1.186134315772e-01
-1.350142947348e-01-j8.580245801980e-02
-1.128454177525e-01-j6.181130828593e-02
-9.335460535663e-02-j4.439866997612e-02
-7.666406539889e-02-j3.181618175828e-02
-6.262096740013e-02-j2.274638001251e-02
-5.094806374343e-02-j1.621638870071e-02
-4.132836313073e-02-j1.151631573066e-02
-3.344978576199e-02-j8.131769824309e-03
-2.702656469398e-02-j5.691500344909e-03
-2.180763597797e-02-j3.928133988876e-03
-1.757806214479e-02-j2.649292943568e-03
-1.415696623836e-02-j1.716582325570e-03
-1.139392844994e-02-j1.030398398666e-03
-9.164908092882e-03-j5.189830731209e-04
-7.368242682012e-03-j1.305517109185e-04
-5.920986845277e-03+j1.723645866787e-04
-4.755693760353e-03+j4.169849067325e-04
-3.817656161204e-03+j6.232017167916e-04
-3.062580789949e-03+j8.056842178992e-04
-2.454650896783e-03+j9.753937271216e-04
-1.964925233228e-03+j1.140677517136e-03
-1.570022719542e-03+j1.308060581510e-03
-1.251046040467e-03+j1.482821126022e-03
-9.927028376849e-04+j1.669411454137e-03
-7.825888333626e-04+j1.871768618634e-03
-6.106025730203e-04+j2.093546815285e-03
-4.684662523574e-04+j2.338294611830e-03
-3.493311921230e-04+j2.609593743287e-03
-2.474499343156e-04+j2.911171651516e-03
-1.578996784835e-04+j3.246996691842e-03
-7.634389650912e-05+j3.621362604054e-03
1.179510536232e-06+j4.038967179869e-03
7.845420664060e-05+j4.504988851751e-03
1.592759155807e-04+j5.025164016595e-03
2.476480801696e-04+j5.605867144458e-03
3.479944381333e-04+j6.254194945382e-03
4.654023174409e-04+j6.978054860002e-03
6.059137530569e-04+j7.786256569609e-03
7.768864797842e-04+j8.688602538154e-03
9.874539978771e-04+j9.695968861887e-03
1.249123874170e-03+j1.082035929060e-02
1.576566814314e-03+j1.207490041011e-02
1.988665908105e-03+j1.347371989564e-02
2.509914283071e-03+j1.503160454839e-02
3.172264470790e-03+j1.676325776959e-02
4.017528506918e-03+j1.868184794816e-02
5.100367096726e-03+j2.079633445324e-02
6.491708704574e-03+j2.310675341884e-02
8.281946309028e-03+j2.559625455386e-02
1.058219684582e-02+j2.821835055741e-02
1.351992076113e-02+j3.087808225586e-02
1.722219195865e-02+j3.340787575897e-02
2.177720858278e-02+j3.554501126972e-02
2.716730593888e-02+j3.692962060070e-02
3.318460580572e-02+j3.715517662401e-02
</dep>
<dep ac.vout_db frequency>
-2.517995214373e-04+j0.000000000000e+00
-2.347197498830e-04+j0.000000000000e+00
-2.134574975892e-04+j0.000000000000e+00
-1.869902216003e-04+j0.000000000000e+00
-1.540463000982e-04+j0.000000000000e+00
-1.130448650440e-04+j0.000000000000e+00
-6.202138095537e-05+j0.000000000000e+00
1.464250630555e-06+j0.000000000000e+00
8.044091934296e-05+j0.000000000000e+00
1.786654368216e-04+j0.000000000000e+00
3.007928963977e-04+j0.000000000000e+00
4.525843292266e-04+j0.000000000000e+00
6.411583350796e-04+j0.000000000000e+00
8.752936444554e-04+j0.000000000000e+00
1.165789162634e-03+j0.000000000000e+00
1.525886376167e-03+j0.000000000000e+00
1.971755109897e-03+j0.000000000000e+00
2.523035960865e-03+j0.000000000000e+00
3.203418815088e-03+j0.000000000000e+00
4.041212707614e-03+j0.000000000000e+00
5.069821610376e-03+j0.000000000000e+00
6.327973557485e-03+j0.000000000000e+00
7.859441104956e-03+j0.000000000000e+00
9.711814694216e-03+j0.000000000000e+00
1.193360810818e-02+j0.000000000000e+00
1.456852582905e-02+j0.000000000000e+00
1.764501035506e-02+j0.000000000000e+00
2.115806522023e-02+j0.000000000000e+00
2.503858852842e-02+j0.000000000000e+00
2.910270705362e-02+j0.000000000000e+00
3.296936519030e-02+j0.000000000000e+00
3.592799167684e-02+j0.000000000000e+00
3.672856980338e-02+j0.000000000000e+00
3.325309863878e-02+j0.000000000000e+00
2.201046918697e-02+j0.000000000000e+00
-2.620166078899e-03+j0.000000000000e+00
-4.947661913630e-02+j0.000000000000e+00
-1.320690361575e-01+j0.000000000000e+00
-2.702857426689e-01+j0.000000000000e+00
-4.918616041245e-01+j0.000000000000e+00
-8.324879510233e-01+j0.000000000000e+00
-1.332833933176e+00+j0.000000000000e+00
-2.031137002928e+00+j0.000000000000e+00
-2.952575370984e+00+j0.000000000000e+00
-4.100436343470e+00+j0.000000000000e+00
-5.454862095562e+00+j0.000000000000e+00
-6.980084036504e+00+j0.000000000000e+00
-8.635189528701e+00+j0.000000000000e+00
-1.038268804659e+01+j0.000000000000e+00
-1.219262347709e+01+j0.000000000000e+00
-1.404311974348e+01+j0.000000000000e+00
-1.591914073938e+01+j0.000000000000e+00
-1.781077999266e+01+j0.000000000000e+00
-1.971171652895e+01+j0.000000000000e+00
-2.161802944370e+01+j0.000000000000e+00
-2.352736050530e+01+j0.000000000000e+00
-2.543834994292e+01+j0.000000000000e+00
-2.735026631343e+01+j0.000000000000e+00
-2.926276574486e+01+j0.000000000000e+00
-3.117573160642e+01+j0.000000000000e+00
-3.308915656595e+01+j0.000000000000e+00
-3.500303266989e+01+j0.000000000000e+00
-3.691720910345e+01+j0.000000000000e+00
-3.883115675996e+01+j0.000000000000e+00
-4.074353373862e+01+j0.000000000000e+00
-4.265135839046e+01+j0.000000000000e+00
-4.454843925833e+01+j0.000000000000e+00
-4.642246155229e+01+j0.000000000000e+00
-4.824984837646e+01+j0.000000000000e+00
-4.998762801928e+01+j0.000000000000e+00
-5.156349705641e+01+j0.000000000000e+00
-5.287175574580e+01+j0.000000000000e+00
-5.379240152215e+01+j0.000000000000e+00
-5.424364844221e+01+j0.000000000000e+00
-5.423383009000e+01+j0.000000000000e+00
-5.385528533313e+01+j0.000000000000e+00
-5.322778812756e+01+j0.000000000000e+00
-5.245110485229e+01+j0.000000000000e+00
-5.159140707508e+01+j0.000000000000e+00
-5.068737867597e+01+j0.000000000000e+00
-4.976010490205e+01+j0.000000000000e+00
-4.882063003739e+01+j0.000000000000e+00
-4.787459314636e+01+j0.000000000000e+00
-4.692480865574e+01+j0.000000000000e+00
-4.597263437610e+01+j0.000000000000e+00
-4.501867667417e+01+j0.000000000000e+00
-4.406314670405e+01+j0.000000000000e+00
-4.310603678457e+01+j0.000000000000e+00
-4.214720554303e+01+j0.000000000000e+00
-4.118641785957e+01+j0.000000000000e+00
-4.022336388324e+01+j0.000000000000e+00
-3.925767084280e+01+j0.000000000000e+00
-3.828891699528e+01+j0.000000000000e+00
-3.731665638478e+01+j0.000000000000e+00
-3.634046511909e+01+j0.000000000000e+00
-3.536002445309e+01+j0.000000000000e+00
-3.437526342403e+01+j0.000000000000e+00
-3.338659455894e+01+j0.000000000000e+00
-3.239529011409e+01+j0.000000000000e+00
-3.140406093640e+01+j0.000000000000e+00
-3.041790673349e+01+j0.000000000000e+00
-2.944528312538e+01+j0.000000000000e+00
-2.849953111053e+01+j0.000000000000e+00
-2.760026538527e+01+j0.000000000000e+00
-2.677396340793e+01+j0.000000000000e+00
-2.605246307175e+01+j0.000000000000e+00
</dep>
