<Qucs Dataset 1.0.0>
<indep time 409>
0.000000000000e+00
9.975060000000e-07
1.995012000000e-06
3.990024000000e-06
7.980048000000e-06
1.596009600000e-05
2.822394171598e-05
5.275163314794e-05
1.018070160119e-04
1.999177817397e-04
2.996683817397e-04
3.994189817397e-04
4.991695817397e-04
5.989201817397e-04
6.986707817397e-04
7.984213817397e-04
8.981719817397e-04
9.979225817397e-04
1.097673181740e-03
1.197423781740e-03
1.297174381740e-03
1.396924981740e-03
1.496675581740e-03
1.596426181740e-03
1.696176781740e-03
1.795927381740e-03
1.895677981740e-03
1.995428581740e-03
2.095179181740e-03
2.194929781740e-03
2.294680381740e-03
2.394430981740e-03
2.494181581740e-03
2.593932181740e-03
2.693682781740e-03
2.793433381740e-03
2.893183981740e-03
2.992934581740e-03
3.092685181740e-03
3.192435781740e-03
3.292186381740e-03
3.391936981740e-03
3.491687581740e-03
3.591438181740e-03
3.691188781740e-03
3.790939381740e-03
3.890689981740e-03
3.990440581740e-03
4.090191181740e-03
4.189941781740e-03
4.289692381740e-03
4.389442981740e-03
4.489193581740e-03
4.588944181740e-03
4.688694781740e-03
4.788445381740e-03
4.888195981740e-03
4.987946581740e-03
5.087697181740e-03
5.187447781740e-03
5.287198381740e-03
5.386948981740e-03
5.486699581740e-03
5.586450181740e-03
5.686200781740e-03
5.785951381740e-03
5.885701981740e-03
5.985452581740e-03
6.085203181740e-03
6.184953781740e-03
6.284704381740e-03
6.384454981740e-03
6.484205581740e-03
6.583956181740e-03
6.683706781740e-03
6.783457381740e-03
6.883207981740e-03
6.982958581740e-03
7.082709181740e-03
7.182459781740e-03
7.282210381740e-03
7.381960981740e-03
7.481711581740e-03
7.581462181740e-03
7.681212781740e-03
7.780963381740e-03
7.880713981740e-03
7.980464581740e-03
8.080215181740e-03
8.179965781740e-03
8.279716381740e-03
8.379466981740e-03
8.479217581740e-03
8.578968181740e-03
8.678718781740e-03
8.778469381740e-03
8.878219981740e-03
8.977970581740e-03
9.077721181740e-03
9.177471781740e-03
9.277222381740e-03
9.376972981740e-03
9.476723581740e-03
9.576474181740e-03
9.676224781740e-03
9.775975381740e-03
9.875725981740e-03
9.975476581740e-03
1.007522718174e-02
1.017497778174e-02
1.027472838174e-02
1.037447898174e-02
1.047422958174e-02
1.057398018174e-02
1.067373078174e-02
1.077348138174e-02
1.087323198174e-02
1.097298258174e-02
1.107273318174e-02
1.117248378174e-02
1.127223438174e-02
1.137198498174e-02
1.147173558174e-02
1.157148618174e-02
1.167123678174e-02
1.177098738174e-02
1.187073798174e-02
1.197048858174e-02
1.207023918174e-02
1.216998978174e-02
1.226974038174e-02
1.236949098174e-02
1.246924158174e-02
1.256899218174e-02
1.266874278174e-02
1.276849338174e-02
1.286824398174e-02
1.296799458174e-02
1.306774518174e-02
1.316749578174e-02
1.326724638174e-02
1.336699698174e-02
1.346674758174e-02
1.356649818174e-02
1.366624878174e-02
1.376599938174e-02
1.386574998174e-02
1.396550058174e-02
1.406525118174e-02
1.416500178174e-02
1.426475238174e-02
1.436450298174e-02
1.446425358174e-02
1.456400418174e-02
1.466375478174e-02
1.476350538174e-02
1.486325598174e-02
1.496300658174e-02
1.506275718174e-02
1.516250778174e-02
1.526225838174e-02
1.536200898174e-02
1.546175958174e-02
1.556151018174e-02
1.566126078174e-02
1.576101138174e-02
1.586076198174e-02
1.596051258174e-02
1.606026318174e-02
1.616001378174e-02
1.625976438174e-02
1.635951498174e-02
1.645926558174e-02
1.655901618174e-02
1.665876678174e-02
1.675851738174e-02
1.685826798174e-02
1.695801858174e-02
1.705776918174e-02
1.715751978174e-02
1.725727038174e-02
1.735702098174e-02
1.745677158174e-02
1.755652218174e-02
1.765627278174e-02
1.775602338174e-02
1.785577398174e-02
1.795552458174e-02
1.805527518174e-02
1.815502578174e-02
1.825477638174e-02
1.835452698174e-02
1.845427758174e-02
1.855402818174e-02
1.865377878174e-02
1.875352938174e-02
1.885327998174e-02
1.895303058174e-02
1.905278118174e-02
1.915253178174e-02
1.925228238174e-02
1.935203298174e-02
1.945178358174e-02
1.955153418174e-02
1.965128478174e-02
1.975103538174e-02
1.985078598174e-02
1.995053658174e-02
2.005028718174e-02
2.015003778174e-02
2.024978838174e-02
2.034953898174e-02
2.044928958174e-02
2.054904018174e-02
2.064879078174e-02
2.074854138174e-02
2.084829198174e-02
2.094804258174e-02
2.104779318174e-02
2.114754378174e-02
2.124729438174e-02
2.134704498174e-02
2.144679558174e-02
2.154654618174e-02
2.164629678174e-02
2.174604738174e-02
2.184579798174e-02
2.194554858174e-02
2.204529918174e-02
2.214504978174e-02
2.224480038174e-02
2.234455098174e-02
2.244430158174e-02
2.254405218174e-02
2.264380278174e-02
2.274355338174e-02
2.284330398174e-02
2.294305458174e-02
2.304280518174e-02
2.314255578174e-02
2.324230638174e-02
2.334205698174e-02
2.344180758174e-02
2.354155818174e-02
2.364130878174e-02
2.374105938174e-02
2.384080998174e-02
2.394056058174e-02
2.404031118174e-02
2.414006178174e-02
2.423981238174e-02
2.433956298174e-02
2.443931358174e-02
2.453906418174e-02
2.463881478174e-02
2.473856538174e-02
2.483831598174e-02
2.493806658174e-02
2.503781718174e-02
2.513756778174e-02
2.523731838174e-02
2.533706898174e-02
2.543681958174e-02
2.553657018174e-02
2.563632078174e-02
2.573607138174e-02
2.583582198174e-02
2.593557258174e-02
2.603532318174e-02
2.613507378174e-02
2.623482438174e-02
2.633457498174e-02
2.643432558174e-02
2.653407618174e-02
2.663382678174e-02
2.673357738174e-02
2.683332798174e-02
2.693307858174e-02
2.703282918174e-02
2.713257978174e-02
2.723233038174e-02
2.733208098174e-02
2.743183158174e-02
2.753158218174e-02
2.763133278174e-02
2.773108338174e-02
2.783083398174e-02
2.793058458174e-02
2.803033518174e-02
2.813008578174e-02
2.822983638174e-02
2.832958698174e-02
2.842933758174e-02
2.852908818174e-02
2.862883878174e-02
2.872858938174e-02
2.882833998174e-02
2.892809058174e-02
2.902784118174e-02
2.912759178174e-02
2.922734238174e-02
2.932709298174e-02
2.942684358174e-02
2.952659418174e-02
2.962634478174e-02
2.972609538174e-02
2.982584598174e-02
2.992559658174e-02
3.002534718174e-02
3.012509778174e-02
3.022484838174e-02
3.032459898174e-02
3.042434958174e-02
3.052410018174e-02
3.062385078174e-02
3.072360138174e-02
3.082335198174e-02
3.092310258174e-02
3.102285318174e-02
3.112260378174e-02
3.122235438174e-02
3.132210498174e-02
3.142185558174e-02
3.152160618174e-02
3.162135678174e-02
3.172110738174e-02
3.182085798174e-02
3.192060858174e-02
3.202035918174e-02
3.212010978174e-02
3.221986038174e-02
3.231961098174e-02
3.241936158174e-02
3.251911218174e-02
3.261886278174e-02
3.271861338174e-02
3.281836398174e-02
3.291811458174e-02
3.301786518174e-02
3.311761578174e-02
3.321736638174e-02
3.331711698174e-02
3.341686758174e-02
3.351661818174e-02
3.361636878174e-02
3.371611938174e-02
3.381586998174e-02
3.391562058174e-02
3.401537118174e-02
3.411512178174e-02
3.421487238174e-02
3.431462298174e-02
3.441437358174e-02
3.451412418174e-02
3.461387478174e-02
3.471362538174e-02
3.481337598174e-02
3.491312658174e-02
3.501287718174e-02
3.511262778174e-02
3.521237838174e-02
3.531212898174e-02
3.541187958174e-02
3.551163018174e-02
3.561138078174e-02
3.571113138174e-02
3.581088198174e-02
3.591063258174e-02
3.601038318174e-02
3.611013378174e-02
3.620988438174e-02
3.630963498174e-02
3.640938558174e-02
3.650913618174e-02
3.660888678174e-02
3.670863738174e-02
3.680838798174e-02
3.690813858174e-02
3.700788918174e-02
3.710763978174e-02
3.720739038174e-02
3.730714098174e-02
3.740689158174e-02
3.750664218174e-02
3.760639278174e-02
3.770614338174e-02
3.780589398174e-02
3.790564458174e-02
3.800539518174e-02
3.810514578174e-02
3.820489638174e-02
3.830464698174e-02
3.840439758174e-02
3.850414818174e-02
3.860389878174e-02
3.870364938174e-02
3.880339998174e-02
3.890315058174e-02
3.900290118174e-02
3.910265178174e-02
3.920240238174e-02
3.930215298174e-02
3.940190358174e-02
3.950165418174e-02
3.960140478174e-02
3.970115538174e-02
3.980090598174e-02
3.990065658174e-02
4.000000000000e-02
</indep>
<dep tran.v(vcc) time>
5.000000000000e+00
5.000000000000e+00
5.000000000000e+00
5.000000000000e+00
5.000000000000e+00
5.000000000000e+00
5.000000000000e+00
5.000000000000e+00
5.000000000000e+00
5.000000000000e+00
5.000000000000e+00
5.000000000000e+00
5.000000000000e+00
5.000000000000e+00
5.000000000000e+00
5.000000000000e+00
5.000000000000e+00
5.000000000000e+00
5.000000000000e+00
5.000000000000e+00
5.000000000000e+00
5.000000000000e+00
5.000000000000e+00
5.000000000000e+00
5.000000000000e+00
5.000000000000e+00
5.000000000000e+00
5.000000000000e+00
5.000000000000e+00
5.000000000000e+00
5.000000000000e+00
5.000000000000e+00
5.000000000000e+00
5.000000000000e+00
5.000000000000e+00
5.000000000000e+00
5.000000000000e+00
5.000000000000e+00
5.000000000000e+00
5.000000000000e+00
5.000000000000e+00
5.000000000000e+00
5.000000000000e+00
5.000000000000e+00
5.000000000000e+00
5.000000000000e+00
5.000000000000e+00
5.000000000000e+00
5.000000000000e+00
5.000000000000e+00
5.000000000000e+00
5.000000000000e+00
5.000000000000e+00
5.000000000000e+00
5.000000000000e+00
5.000000000000e+00
5.000000000000e+00
5.000000000000e+00
5.000000000000e+00
5.000000000000e+00
5.000000000000e+00
5.000000000000e+00
5.000000000000e+00
5.000000000000e+00
5.000000000000e+00
5.000000000000e+00
5.000000000000e+00
5.000000000000e+00
5.000000000000e+00
5.000000000000e+00
5.000000000000e+00
5.000000000000e+00
5.000000000000e+00
5.000000000000e+00
5.000000000000e+00
5.000000000000e+00
5.000000000000e+00
5.000000000000e+00
5.000000000000e+00
5.000000000000e+00
5.000000000000e+00
5.000000000000e+00
5.000000000000e+00
5.000000000000e+00
5.000000000000e+00
5.000000000000e+00
5.000000000000e+00
5.000000000000e+00
5.000000000000e+00
5.000000000000e+00
5.000000000000e+00
5.000000000000e+00
5.000000000000e+00
5.000000000000e+00
5.000000000000e+00
5.000000000000e+00
5.000000000000e+00
5.000000000000e+00
5.000000000000e+00
5.000000000000e+00
5.000000000000e+00
5.000000000000e+00
5.000000000000e+00
5.000000000000e+00
5.000000000000e+00
5.000000000000e+00
5.000000000000e+00
5.000000000000e+00
5.000000000000e+00
5.000000000000e+00
5.000000000000e+00
5.000000000000e+00
5.000000000000e+00
5.000000000000e+00
5.000000000000e+00
5.000000000000e+00
5.000000000000e+00
5.000000000000e+00
5.000000000000e+00
5.000000000000e+00
5.000000000000e+00
5.000000000000e+00
5.000000000000e+00
5.000000000000e+00
5.000000000000e+00
5.000000000000e+00
5.000000000000e+00
5.000000000000e+00
5.000000000000e+00
5.000000000000e+00
5.000000000000e+00
5.000000000000e+00
5.000000000000e+00
5.000000000000e+00
5.000000000000e+00
5.000000000000e+00
5.000000000000e+00
5.000000000000e+00
5.000000000000e+00
5.000000000000e+00
5.000000000000e+00
5.000000000000e+00
5.000000000000e+00
5.000000000000e+00
5.000000000000e+00
5.000000000000e+00
5.000000000000e+00
5.000000000000e+00
5.000000000000e+00
5.000000000000e+00
5.000000000000e+00
5.000000000000e+00
5.000000000000e+00
5.000000000000e+00
5.000000000000e+00
5.000000000000e+00
5.000000000000e+00
5.000000000000e+00
5.000000000000e+00
5.000000000000e+00
5.000000000000e+00
5.000000000000e+00
5.000000000000e+00
5.000000000000e+00
5.000000000000e+00
5.000000000000e+00
5.000000000000e+00
5.000000000000e+00
5.000000000000e+00
5.000000000000e+00
5.000000000000e+00
5.000000000000e+00
5.000000000000e+00
5.000000000000e+00
5.000000000000e+00
5.000000000000e+00
5.000000000000e+00
5.000000000000e+00
5.000000000000e+00
5.000000000000e+00
5.000000000000e+00
5.000000000000e+00
5.000000000000e+00
5.000000000000e+00
5.000000000000e+00
5.000000000000e+00
5.000000000000e+00
5.000000000000e+00
5.000000000000e+00
5.000000000000e+00
5.000000000000e+00
5.000000000000e+00
5.000000000000e+00
5.000000000000e+00
5.000000000000e+00
5.000000000000e+00
5.000000000000e+00
5.000000000000e+00
5.000000000000e+00
5.000000000000e+00
5.000000000000e+00
5.000000000000e+00
5.000000000000e+00
5.000000000000e+00
5.000000000000e+00
5.000000000000e+00
5.000000000000e+00
5.000000000000e+00
5.000000000000e+00
5.000000000000e+00
5.000000000000e+00
5.000000000000e+00
5.000000000000e+00
5.000000000000e+00
5.000000000000e+00
5.000000000000e+00
5.000000000000e+00
5.000000000000e+00
5.000000000000e+00
5.000000000000e+00
5.000000000000e+00
5.000000000000e+00
5.000000000000e+00
5.000000000000e+00
5.000000000000e+00
5.000000000000e+00
5.000000000000e+00
5.000000000000e+00
5.000000000000e+00
5.000000000000e+00
5.000000000000e+00
5.000000000000e+00
5.000000000000e+00
5.000000000000e+00
5.000000000000e+00
5.000000000000e+00
5.000000000000e+00
5.000000000000e+00
5.000000000000e+00
5.000000000000e+00
5.000000000000e+00
5.000000000000e+00
5.000000000000e+00
5.000000000000e+00
5.000000000000e+00
5.000000000000e+00
5.000000000000e+00
5.000000000000e+00
5.000000000000e+00
5.000000000000e+00
5.000000000000e+00
5.000000000000e+00
5.000000000000e+00
5.000000000000e+00
5.000000000000e+00
5.000000000000e+00
5.000000000000e+00
5.000000000000e+00
5.000000000000e+00
5.000000000000e+00
5.000000000000e+00
5.000000000000e+00
5.000000000000e+00
5.000000000000e+00
5.000000000000e+00
5.000000000000e+00
5.000000000000e+00
5.000000000000e+00
5.000000000000e+00
5.000000000000e+00
5.000000000000e+00
5.000000000000e+00
5.000000000000e+00
5.000000000000e+00
5.000000000000e+00
5.000000000000e+00
5.000000000000e+00
5.000000000000e+00
5.000000000000e+00
5.000000000000e+00
5.000000000000e+00
5.000000000000e+00
5.000000000000e+00
5.000000000000e+00
5.000000000000e+00
5.000000000000e+00
5.000000000000e+00
5.000000000000e+00
5.000000000000e+00
5.000000000000e+00
5.000000000000e+00
5.000000000000e+00
5.000000000000e+00
5.000000000000e+00
5.000000000000e+00
5.000000000000e+00
5.000000000000e+00
5.000000000000e+00
5.000000000000e+00
5.000000000000e+00
5.000000000000e+00
5.000000000000e+00
5.000000000000e+00
5.000000000000e+00
5.000000000000e+00
5.000000000000e+00
5.000000000000e+00
5.000000000000e+00
5.000000000000e+00
5.000000000000e+00
5.000000000000e+00
5.000000000000e+00
5.000000000000e+00
5.000000000000e+00
5.000000000000e+00
5.000000000000e+00
5.000000000000e+00
5.000000000000e+00
5.000000000000e+00
5.000000000000e+00
5.000000000000e+00
5.000000000000e+00
5.000000000000e+00
5.000000000000e+00
5.000000000000e+00
5.000000000000e+00
5.000000000000e+00
5.000000000000e+00
5.000000000000e+00
5.000000000000e+00
5.000000000000e+00
5.000000000000e+00
5.000000000000e+00
5.000000000000e+00
5.000000000000e+00
5.000000000000e+00
5.000000000000e+00
5.000000000000e+00
5.000000000000e+00
5.000000000000e+00
5.000000000000e+00
5.000000000000e+00
5.000000000000e+00
5.000000000000e+00
5.000000000000e+00
5.000000000000e+00
5.000000000000e+00
5.000000000000e+00
5.000000000000e+00
5.000000000000e+00
5.000000000000e+00
5.000000000000e+00
5.000000000000e+00
5.000000000000e+00
5.000000000000e+00
5.000000000000e+00
5.000000000000e+00
5.000000000000e+00
5.000000000000e+00
5.000000000000e+00
5.000000000000e+00
5.000000000000e+00
5.000000000000e+00
5.000000000000e+00
5.000000000000e+00
5.000000000000e+00
5.000000000000e+00
5.000000000000e+00
5.000000000000e+00
5.000000000000e+00
5.000000000000e+00
5.000000000000e+00
5.000000000000e+00
5.000000000000e+00
5.000000000000e+00
5.000000000000e+00
5.000000000000e+00
5.000000000000e+00
5.000000000000e+00
5.000000000000e+00
5.000000000000e+00
5.000000000000e+00
5.000000000000e+00
5.000000000000e+00
5.000000000000e+00
5.000000000000e+00
5.000000000000e+00
5.000000000000e+00
5.000000000000e+00
5.000000000000e+00
5.000000000000e+00
5.000000000000e+00
5.000000000000e+00
5.000000000000e+00
5.000000000000e+00
5.000000000000e+00
5.000000000000e+00
5.000000000000e+00
5.000000000000e+00
5.000000000000e+00
5.000000000000e+00
5.000000000000e+00
5.000000000000e+00
5.000000000000e+00
5.000000000000e+00
5.000000000000e+00
5.000000000000e+00
5.000000000000e+00
5.000000000000e+00
</dep>
<dep tran.v(vee) time>
-5.000000000000e+00
-5.000000000000e+00
-5.000000000000e+00
-5.000000000000e+00
-5.000000000000e+00
-5.000000000000e+00
-5.000000000000e+00
-5.000000000000e+00
-5.000000000000e+00
-5.000000000000e+00
-5.000000000000e+00
-5.000000000000e+00
-5.000000000000e+00
-5.000000000000e+00
-5.000000000000e+00
-5.000000000000e+00
-5.000000000000e+00
-5.000000000000e+00
-5.000000000000e+00
-5.000000000000e+00
-5.000000000000e+00
-5.000000000000e+00
-5.000000000000e+00
-5.000000000000e+00
-5.000000000000e+00
-5.000000000000e+00
-5.000000000000e+00
-5.000000000000e+00
-5.000000000000e+00
-5.000000000000e+00
-5.000000000000e+00
-5.000000000000e+00
-5.000000000000e+00
-5.000000000000e+00
-5.000000000000e+00
-5.000000000000e+00
-5.000000000000e+00
-5.000000000000e+00
-5.000000000000e+00
-5.000000000000e+00
-5.000000000000e+00
-5.000000000000e+00
-5.000000000000e+00
-5.000000000000e+00
-5.000000000000e+00
-5.000000000000e+00
-5.000000000000e+00
-5.000000000000e+00
-5.000000000000e+00
-5.000000000000e+00
-5.000000000000e+00
-5.000000000000e+00
-5.000000000000e+00
-5.000000000000e+00
-5.000000000000e+00
-5.000000000000e+00
-5.000000000000e+00
-5.000000000000e+00
-5.000000000000e+00
-5.000000000000e+00
-5.000000000000e+00
-5.000000000000e+00
-5.000000000000e+00
-5.000000000000e+00
-5.000000000000e+00
-5.000000000000e+00
-5.000000000000e+00
-5.000000000000e+00
-5.000000000000e+00
-5.000000000000e+00
-5.000000000000e+00
-5.000000000000e+00
-5.000000000000e+00
-5.000000000000e+00
-5.000000000000e+00
-5.000000000000e+00
-5.000000000000e+00
-5.000000000000e+00
-5.000000000000e+00
-5.000000000000e+00
-5.000000000000e+00
-5.000000000000e+00
-5.000000000000e+00
-5.000000000000e+00
-5.000000000000e+00
-5.000000000000e+00
-5.000000000000e+00
-5.000000000000e+00
-5.000000000000e+00
-5.000000000000e+00
-5.000000000000e+00
-5.000000000000e+00
-5.000000000000e+00
-5.000000000000e+00
-5.000000000000e+00
-5.000000000000e+00
-5.000000000000e+00
-5.000000000000e+00
-5.000000000000e+00
-5.000000000000e+00
-5.000000000000e+00
-5.000000000000e+00
-5.000000000000e+00
-5.000000000000e+00
-5.000000000000e+00
-5.000000000000e+00
-5.000000000000e+00
-5.000000000000e+00
-5.000000000000e+00
-5.000000000000e+00
-5.000000000000e+00
-5.000000000000e+00
-5.000000000000e+00
-5.000000000000e+00
-5.000000000000e+00
-5.000000000000e+00
-5.000000000000e+00
-5.000000000000e+00
-5.000000000000e+00
-5.000000000000e+00
-5.000000000000e+00
-5.000000000000e+00
-5.000000000000e+00
-5.000000000000e+00
-5.000000000000e+00
-5.000000000000e+00
-5.000000000000e+00
-5.000000000000e+00
-5.000000000000e+00
-5.000000000000e+00
-5.000000000000e+00
-5.000000000000e+00
-5.000000000000e+00
-5.000000000000e+00
-5.000000000000e+00
-5.000000000000e+00
-5.000000000000e+00
-5.000000000000e+00
-5.000000000000e+00
-5.000000000000e+00
-5.000000000000e+00
-5.000000000000e+00
-5.000000000000e+00
-5.000000000000e+00
-5.000000000000e+00
-5.000000000000e+00
-5.000000000000e+00
-5.000000000000e+00
-5.000000000000e+00
-5.000000000000e+00
-5.000000000000e+00
-5.000000000000e+00
-5.000000000000e+00
-5.000000000000e+00
-5.000000000000e+00
-5.000000000000e+00
-5.000000000000e+00
-5.000000000000e+00
-5.000000000000e+00
-5.000000000000e+00
-5.000000000000e+00
-5.000000000000e+00
-5.000000000000e+00
-5.000000000000e+00
-5.000000000000e+00
-5.000000000000e+00
-5.000000000000e+00
-5.000000000000e+00
-5.000000000000e+00
-5.000000000000e+00
-5.000000000000e+00
-5.000000000000e+00
-5.000000000000e+00
-5.000000000000e+00
-5.000000000000e+00
-5.000000000000e+00
-5.000000000000e+00
-5.000000000000e+00
-5.000000000000e+00
-5.000000000000e+00
-5.000000000000e+00
-5.000000000000e+00
-5.000000000000e+00
-5.000000000000e+00
-5.000000000000e+00
-5.000000000000e+00
-5.000000000000e+00
-5.000000000000e+00
-5.000000000000e+00
-5.000000000000e+00
-5.000000000000e+00
-5.000000000000e+00
-5.000000000000e+00
-5.000000000000e+00
-5.000000000000e+00
-5.000000000000e+00
-5.000000000000e+00
-5.000000000000e+00
-5.000000000000e+00
-5.000000000000e+00
-5.000000000000e+00
-5.000000000000e+00
-5.000000000000e+00
-5.000000000000e+00
-5.000000000000e+00
-5.000000000000e+00
-5.000000000000e+00
-5.000000000000e+00
-5.000000000000e+00
-5.000000000000e+00
-5.000000000000e+00
-5.000000000000e+00
-5.000000000000e+00
-5.000000000000e+00
-5.000000000000e+00
-5.000000000000e+00
-5.000000000000e+00
